Command: vcs -V -R -full64 -sverilog +v2k -debug_access+all -ntb_opts uvm-1.2 -l \
fell.log top.sv
/fetools/synopsys/installed_tools/vcs/vcs/Q-2020.03-SP2-8/linux64/bin/vcs1 -Mcc=gcc \
-Mcplusplus=g++ -Masflags= -Mcfl= -pipe -DVCSMX -DUVM_DPI_DO_TYPE_CHECK -fPIC -O \
-I/fetools/synopsys/installed_tools/vcs/vcs/Q-2020.03-SP2-8/include  -Mxllcflags= \
-Mxcflags= -pipe -DVCSMX -DUVM_DPI_DO_TYPE_CHECK -fPIC -I/fetools/synopsys/installed_tools/vcs/vcs/Q-2020.03-SP2-8/include \
-Mldflags= -rdynamic  -Mout=simv -Mamsrun="" -Mvcsaceobjs="" -Mobjects=" /fetools/synopsys/installed_tools/vcs/vcs/Q-2020.03-SP2-8/linux64/lib/libvirsim.so \
/fetools/synopsys/installed_tools/vcs/vcs/Q-2020.03-SP2-8/linux64/lib/liberrorinf.so \
/fetools/synopsys/installed_tools/vcs/vcs/Q-2020.03-SP2-8/linux64/lib/libsnpsmalloc.so \
/fetools/synopsys/installed_tools/vcs/vcs/Q-2020.03-SP2-8/linux64/lib/libvfs.so " \
-Mexternalobj= -Msaverestoreobj=/fetools/synopsys/installed_tools/vcs/vcs/Q-2020.03-SP2-8/linux64/lib/vcs_save_restore_new.o \
-Mcrt0= -Mcrtn="" -Mcsrc="/fetools/synopsys/installed_tools/vcs/vcs/Q-2020.03-SP2-8/etc/uvm-1.2/dpi/uvm_dpi.cc \
/fetools/synopsys/installed_tools/vcs/vcs/Q-2020.03-SP2-8/etc/uvm-1.2/verdi/dpi/uvm_verdi_dpi.cpp \
" -Msyslibs=/fetools/synopsys/installed_tools/verdi/verdi/Q-2020.03-SP2-8/share/PLI/VCS/LINUX64/pli.a \
-ldl  -l fell.log +define+UVM_VERDI_VIF_RECORD +define+UVM_VCS_RECORD +incdir+/fetools/synopsys/installed_tools/vcs/vcs/Q-2020.03-SP2-8/etc/uvm-1.2/vcs \
/fetools/synopsys/installed_tools/vcs/vcs/Q-2020.03-SP2-8/etc/uvm-1.2/uvm_pkg.sv \
/fetools/synopsys/installed_tools/vcs/vcs/Q-2020.03-SP2-8/etc/uvm-1.2/vcs/uvm_custom_install_vcs_recorder.sv \
+incdir+/fetools/synopsys/installed_tools/vcs/vcs/Q-2020.03-SP2-8/etc/uvm-1.2/verdi \
/fetools/synopsys/installed_tools/vcs/vcs/Q-2020.03-SP2-8/etc/uvm-1.2/verdi/uvm_custom_install_verdi_recorder.sv \
-Xvcs_run_simv=1 -V -full64 +v2k -debug_access+all +vpi +vcsd1 +itf+/fetools/synopsys/installed_tools/vcs/vcs/Q-2020.03-SP2-8/linux64/lib/vcsdp_lite.tab \
-ntb_opts uvm-1.2 +incdir+/fetools/synopsys/installed_tools/vcs/vcs/Q-2020.03-SP2-8/etc/uvm-1.2/ \
-picarchive -P /fetools/synopsys/installed_tools/verdi/verdi/Q-2020.03-SP2-8/share/PLI/VCS/LINUX64/verdi.tab \
-fsdb -sverilog -gen_obj top.sv  
                         Chronologic VCS (TM)
      Version Q-2020.03-SP2-8_Full64 -- Wed Sep 16 23:03:14 2026
               Copyright (c) 1991-2020 by Synopsys Inc.
                         ALL RIGHTS RESERVED

This program is proprietary and confidential information of Synopsys Inc.
and may be used and disclosed only as authorized in a license agreement
controlling such use and disclosure.

Parsing design file '/fetools/synopsys/installed_tools/vcs/vcs/Q-2020.03-SP2-8/etc/uvm-1.2/uvm_pkg.sv'
Parsing included file '/fetools/synopsys/installed_tools/vcs/vcs/Q-2020.03-SP2-8/etc/uvm-1.2/uvm_macros.svh'.
Parsing included file '/fetools/synopsys/installed_tools/vcs/vcs/Q-2020.03-SP2-8/etc/uvm-1.2/macros/uvm_version_defines.svh'.
Back to file '/fetools/synopsys/installed_tools/vcs/vcs/Q-2020.03-SP2-8/etc/uvm-1.2/uvm_macros.svh'.
Parsing included file '/fetools/synopsys/installed_tools/vcs/vcs/Q-2020.03-SP2-8/etc/uvm-1.2/macros/uvm_global_defines.svh'.
Back to file '/fetools/synopsys/installed_tools/vcs/vcs/Q-2020.03-SP2-8/etc/uvm-1.2/uvm_macros.svh'.
Parsing included file '/fetools/synopsys/installed_tools/vcs/vcs/Q-2020.03-SP2-8/etc/uvm-1.2/macros/snps_macros.svp'.
Back to file '/fetools/synopsys/installed_tools/vcs/vcs/Q-2020.03-SP2-8/etc/uvm-1.2/uvm_macros.svh'.
Parsing included file '/fetools/synopsys/installed_tools/vcs/vcs/Q-2020.03-SP2-8/etc/uvm-1.2/macros/uvm_message_defines.svh'.
Back to file '/fetools/synopsys/installed_tools/vcs/vcs/Q-2020.03-SP2-8/etc/uvm-1.2/uvm_macros.svh'.
Parsing included file '/fetools/synopsys/installed_tools/vcs/vcs/Q-2020.03-SP2-8/etc/uvm-1.2/macros/uvm_phase_defines.svh'.
Back to file '/fetools/synopsys/installed_tools/vcs/vcs/Q-2020.03-SP2-8/etc/uvm-1.2/uvm_macros.svh'.
Parsing included file '/fetools/synopsys/installed_tools/vcs/vcs/Q-2020.03-SP2-8/etc/uvm-1.2/macros/uvm_object_defines.svh'.
Back to file '/fetools/synopsys/installed_tools/vcs/vcs/Q-2020.03-SP2-8/etc/uvm-1.2/uvm_macros.svh'.
Parsing included file '/fetools/synopsys/installed_tools/vcs/vcs/Q-2020.03-SP2-8/etc/uvm-1.2/macros/uvm_printer_defines.svh'.
Back to file '/fetools/synopsys/installed_tools/vcs/vcs/Q-2020.03-SP2-8/etc/uvm-1.2/uvm_macros.svh'.
Parsing included file '/fetools/synopsys/installed_tools/vcs/vcs/Q-2020.03-SP2-8/etc/uvm-1.2/macros/uvm_tlm_defines.svh'.
Parsing included file '/fetools/synopsys/installed_tools/vcs/vcs/Q-2020.03-SP2-8/etc/uvm-1.2/tlm1/uvm_tlm_imps.svh'.
Back to file '/fetools/synopsys/installed_tools/vcs/vcs/Q-2020.03-SP2-8/etc/uvm-1.2/macros/uvm_tlm_defines.svh'.
Back to file '/fetools/synopsys/installed_tools/vcs/vcs/Q-2020.03-SP2-8/etc/uvm-1.2/uvm_macros.svh'.
Parsing included file '/fetools/synopsys/installed_tools/vcs/vcs/Q-2020.03-SP2-8/etc/uvm-1.2/macros/uvm_sequence_defines.svh'.
Back to file '/fetools/synopsys/installed_tools/vcs/vcs/Q-2020.03-SP2-8/etc/uvm-1.2/uvm_macros.svh'.
Parsing included file '/fetools/synopsys/installed_tools/vcs/vcs/Q-2020.03-SP2-8/etc/uvm-1.2/macros/uvm_callback_defines.svh'.
Back to file '/fetools/synopsys/installed_tools/vcs/vcs/Q-2020.03-SP2-8/etc/uvm-1.2/uvm_macros.svh'.
Parsing included file '/fetools/synopsys/installed_tools/vcs/vcs/Q-2020.03-SP2-8/etc/uvm-1.2/macros/uvm_reg_defines.svh'.
Back to file '/fetools/synopsys/installed_tools/vcs/vcs/Q-2020.03-SP2-8/etc/uvm-1.2/uvm_macros.svh'.
Parsing included file '/fetools/synopsys/installed_tools/vcs/vcs/Q-2020.03-SP2-8/etc/uvm-1.2/macros/uvm_deprecated_defines.svh'.
Back to file '/fetools/synopsys/installed_tools/vcs/vcs/Q-2020.03-SP2-8/etc/uvm-1.2/uvm_macros.svh'.
Back to file '/fetools/synopsys/installed_tools/vcs/vcs/Q-2020.03-SP2-8/etc/uvm-1.2/uvm_pkg.sv'.
Parsing included file '/fetools/synopsys/installed_tools/vcs/vcs/Q-2020.03-SP2-8/etc/uvm-1.2/dpi/uvm_dpi.svh'.
Parsing included file '/fetools/synopsys/installed_tools/vcs/vcs/Q-2020.03-SP2-8/etc/uvm-1.2/dpi/uvm_hdl.svh'.
Back to file '/fetools/synopsys/installed_tools/vcs/vcs/Q-2020.03-SP2-8/etc/uvm-1.2/dpi/uvm_dpi.svh'.
Parsing included file '/fetools/synopsys/installed_tools/vcs/vcs/Q-2020.03-SP2-8/etc/uvm-1.2/dpi/uvm_svcmd_dpi.svh'.
Back to file '/fetools/synopsys/installed_tools/vcs/vcs/Q-2020.03-SP2-8/etc/uvm-1.2/dpi/uvm_dpi.svh'.
Parsing included file '/fetools/synopsys/installed_tools/vcs/vcs/Q-2020.03-SP2-8/etc/uvm-1.2/dpi/uvm_regex.svh'.
Back to file '/fetools/synopsys/installed_tools/vcs/vcs/Q-2020.03-SP2-8/etc/uvm-1.2/dpi/uvm_dpi.svh'.
Back to file '/fetools/synopsys/installed_tools/vcs/vcs/Q-2020.03-SP2-8/etc/uvm-1.2/uvm_pkg.sv'.
Parsing included file '/fetools/synopsys/installed_tools/vcs/vcs/Q-2020.03-SP2-8/etc/uvm-1.2/base/uvm_base.svh'.
Parsing included file '/fetools/synopsys/installed_tools/vcs/vcs/Q-2020.03-SP2-8/etc/uvm-1.2/base/uvm_coreservice.svh'.
Back to file '/fetools/synopsys/installed_tools/vcs/vcs/Q-2020.03-SP2-8/etc/uvm-1.2/base/uvm_base.svh'.
Parsing included file '/fetools/synopsys/installed_tools/vcs/vcs/Q-2020.03-SP2-8/etc/uvm-1.2/base/uvm_version.svh'.
Back to file '/fetools/synopsys/installed_tools/vcs/vcs/Q-2020.03-SP2-8/etc/uvm-1.2/base/uvm_base.svh'.
Parsing included file '/fetools/synopsys/installed_tools/vcs/vcs/Q-2020.03-SP2-8/etc/uvm-1.2/base/uvm_object_globals.svh'.
Back to file '/fetools/synopsys/installed_tools/vcs/vcs/Q-2020.03-SP2-8/etc/uvm-1.2/base/uvm_base.svh'.
Parsing included file '/fetools/synopsys/installed_tools/vcs/vcs/Q-2020.03-SP2-8/etc/uvm-1.2/base/uvm_misc.svh'.
Back to file '/fetools/synopsys/installed_tools/vcs/vcs/Q-2020.03-SP2-8/etc/uvm-1.2/base/uvm_base.svh'.
Parsing included file '/fetools/synopsys/installed_tools/vcs/vcs/Q-2020.03-SP2-8/etc/uvm-1.2/base/uvm_object.svh'.
Back to file '/fetools/synopsys/installed_tools/vcs/vcs/Q-2020.03-SP2-8/etc/uvm-1.2/base/uvm_base.svh'.
Parsing included file '/fetools/synopsys/installed_tools/vcs/vcs/Q-2020.03-SP2-8/etc/uvm-1.2/base/uvm_pool.svh'.
Back to file '/fetools/synopsys/installed_tools/vcs/vcs/Q-2020.03-SP2-8/etc/uvm-1.2/base/uvm_base.svh'.
Parsing included file '/fetools/synopsys/installed_tools/vcs/vcs/Q-2020.03-SP2-8/etc/uvm-1.2/base/uvm_queue.svh'.
Back to file '/fetools/synopsys/installed_tools/vcs/vcs/Q-2020.03-SP2-8/etc/uvm-1.2/base/uvm_base.svh'.
Parsing included file '/fetools/synopsys/installed_tools/vcs/vcs/Q-2020.03-SP2-8/etc/uvm-1.2/base/uvm_factory.svh'.
Back to file '/fetools/synopsys/installed_tools/vcs/vcs/Q-2020.03-SP2-8/etc/uvm-1.2/base/uvm_base.svh'.
Parsing included file '/fetools/synopsys/installed_tools/vcs/vcs/Q-2020.03-SP2-8/etc/uvm-1.2/base/uvm_registry.svh'.
Back to file '/fetools/synopsys/installed_tools/vcs/vcs/Q-2020.03-SP2-8/etc/uvm-1.2/base/uvm_base.svh'.
Parsing included file '/fetools/synopsys/installed_tools/vcs/vcs/Q-2020.03-SP2-8/etc/uvm-1.2/base/uvm_spell_chkr.svh'.
Back to file '/fetools/synopsys/installed_tools/vcs/vcs/Q-2020.03-SP2-8/etc/uvm-1.2/base/uvm_base.svh'.
Parsing included file '/fetools/synopsys/installed_tools/vcs/vcs/Q-2020.03-SP2-8/etc/uvm-1.2/base/uvm_resource.svh'.
Back to file '/fetools/synopsys/installed_tools/vcs/vcs/Q-2020.03-SP2-8/etc/uvm-1.2/base/uvm_base.svh'.
Parsing included file '/fetools/synopsys/installed_tools/vcs/vcs/Q-2020.03-SP2-8/etc/uvm-1.2/base/uvm_resource_specializations.svh'.
Back to file '/fetools/synopsys/installed_tools/vcs/vcs/Q-2020.03-SP2-8/etc/uvm-1.2/base/uvm_base.svh'.
Parsing included file '/fetools/synopsys/installed_tools/vcs/vcs/Q-2020.03-SP2-8/etc/uvm-1.2/base/uvm_resource_db.svh'.
Back to file '/fetools/synopsys/installed_tools/vcs/vcs/Q-2020.03-SP2-8/etc/uvm-1.2/base/uvm_base.svh'.
Parsing included file '/fetools/synopsys/installed_tools/vcs/vcs/Q-2020.03-SP2-8/etc/uvm-1.2/base/uvm_config_db.svh'.
Back to file '/fetools/synopsys/installed_tools/vcs/vcs/Q-2020.03-SP2-8/etc/uvm-1.2/base/uvm_base.svh'.
Parsing included file '/fetools/synopsys/installed_tools/vcs/vcs/Q-2020.03-SP2-8/etc/uvm-1.2/base/uvm_printer.svh'.
Back to file '/fetools/synopsys/installed_tools/vcs/vcs/Q-2020.03-SP2-8/etc/uvm-1.2/base/uvm_base.svh'.
Parsing included file '/fetools/synopsys/installed_tools/vcs/vcs/Q-2020.03-SP2-8/etc/uvm-1.2/base/uvm_comparer.svh'.
Back to file '/fetools/synopsys/installed_tools/vcs/vcs/Q-2020.03-SP2-8/etc/uvm-1.2/base/uvm_base.svh'.
Parsing included file '/fetools/synopsys/installed_tools/vcs/vcs/Q-2020.03-SP2-8/etc/uvm-1.2/base/uvm_packer.svh'.
Back to file '/fetools/synopsys/installed_tools/vcs/vcs/Q-2020.03-SP2-8/etc/uvm-1.2/base/uvm_base.svh'.
Parsing included file '/fetools/synopsys/installed_tools/vcs/vcs/Q-2020.03-SP2-8/etc/uvm-1.2/base/uvm_links.svh'.
Back to file '/fetools/synopsys/installed_tools/vcs/vcs/Q-2020.03-SP2-8/etc/uvm-1.2/base/uvm_base.svh'.
Parsing included file '/fetools/synopsys/installed_tools/vcs/vcs/Q-2020.03-SP2-8/etc/uvm-1.2/base/uvm_tr_database.svh'.
Back to file '/fetools/synopsys/installed_tools/vcs/vcs/Q-2020.03-SP2-8/etc/uvm-1.2/base/uvm_base.svh'.
Parsing included file '/fetools/synopsys/installed_tools/vcs/vcs/Q-2020.03-SP2-8/etc/uvm-1.2/base/uvm_tr_stream.svh'.
Back to file '/fetools/synopsys/installed_tools/vcs/vcs/Q-2020.03-SP2-8/etc/uvm-1.2/base/uvm_base.svh'.
Parsing included file '/fetools/synopsys/installed_tools/vcs/vcs/Q-2020.03-SP2-8/etc/uvm-1.2/base/uvm_recorder.svh'.
Back to file '/fetools/synopsys/installed_tools/vcs/vcs/Q-2020.03-SP2-8/etc/uvm-1.2/base/uvm_base.svh'.
Parsing included file '/fetools/synopsys/installed_tools/vcs/vcs/Q-2020.03-SP2-8/etc/uvm-1.2/base/uvm_event_callback.svh'.
Back to file '/fetools/synopsys/installed_tools/vcs/vcs/Q-2020.03-SP2-8/etc/uvm-1.2/base/uvm_base.svh'.
Parsing included file '/fetools/synopsys/installed_tools/vcs/vcs/Q-2020.03-SP2-8/etc/uvm-1.2/base/uvm_event.svh'.
Back to file '/fetools/synopsys/installed_tools/vcs/vcs/Q-2020.03-SP2-8/etc/uvm-1.2/base/uvm_base.svh'.
Parsing included file '/fetools/synopsys/installed_tools/vcs/vcs/Q-2020.03-SP2-8/etc/uvm-1.2/base/uvm_barrier.svh'.
Back to file '/fetools/synopsys/installed_tools/vcs/vcs/Q-2020.03-SP2-8/etc/uvm-1.2/base/uvm_base.svh'.
Parsing included file '/fetools/synopsys/installed_tools/vcs/vcs/Q-2020.03-SP2-8/etc/uvm-1.2/base/uvm_callback.svh'.
Parsing included file '/fetools/synopsys/installed_tools/vcs/vcs/Q-2020.03-SP2-8/etc/uvm-1.2/uvm_macros.svh'.
Back to file '/fetools/synopsys/installed_tools/vcs/vcs/Q-2020.03-SP2-8/etc/uvm-1.2/base/uvm_callback.svh'.
Back to file '/fetools/synopsys/installed_tools/vcs/vcs/Q-2020.03-SP2-8/etc/uvm-1.2/base/uvm_base.svh'.
Parsing included file '/fetools/synopsys/installed_tools/vcs/vcs/Q-2020.03-SP2-8/etc/uvm-1.2/base/uvm_report_message.svh'.
Back to file '/fetools/synopsys/installed_tools/vcs/vcs/Q-2020.03-SP2-8/etc/uvm-1.2/base/uvm_base.svh'.
Parsing included file '/fetools/synopsys/installed_tools/vcs/vcs/Q-2020.03-SP2-8/etc/uvm-1.2/base/uvm_report_catcher.svh'.
Back to file '/fetools/synopsys/installed_tools/vcs/vcs/Q-2020.03-SP2-8/etc/uvm-1.2/base/uvm_base.svh'.
Parsing included file '/fetools/synopsys/installed_tools/vcs/vcs/Q-2020.03-SP2-8/etc/uvm-1.2/base/uvm_report_server.svh'.
Back to file '/fetools/synopsys/installed_tools/vcs/vcs/Q-2020.03-SP2-8/etc/uvm-1.2/base/uvm_base.svh'.
Parsing included file '/fetools/synopsys/installed_tools/vcs/vcs/Q-2020.03-SP2-8/etc/uvm-1.2/base/uvm_report_handler.svh'.
Back to file '/fetools/synopsys/installed_tools/vcs/vcs/Q-2020.03-SP2-8/etc/uvm-1.2/base/uvm_base.svh'.
Parsing included file '/fetools/synopsys/installed_tools/vcs/vcs/Q-2020.03-SP2-8/etc/uvm-1.2/base/uvm_report_object.svh'.
Back to file '/fetools/synopsys/installed_tools/vcs/vcs/Q-2020.03-SP2-8/etc/uvm-1.2/base/uvm_base.svh'.
Parsing included file '/fetools/synopsys/installed_tools/vcs/vcs/Q-2020.03-SP2-8/etc/uvm-1.2/base/uvm_transaction.svh'.
Back to file '/fetools/synopsys/installed_tools/vcs/vcs/Q-2020.03-SP2-8/etc/uvm-1.2/base/uvm_base.svh'.
Parsing included file '/fetools/synopsys/installed_tools/vcs/vcs/Q-2020.03-SP2-8/etc/uvm-1.2/base/uvm_phase.svh'.
Back to file '/fetools/synopsys/installed_tools/vcs/vcs/Q-2020.03-SP2-8/etc/uvm-1.2/base/uvm_base.svh'.
Parsing included file '/fetools/synopsys/installed_tools/vcs/vcs/Q-2020.03-SP2-8/etc/uvm-1.2/base/uvm_domain.svh'.
Back to file '/fetools/synopsys/installed_tools/vcs/vcs/Q-2020.03-SP2-8/etc/uvm-1.2/base/uvm_base.svh'.
Parsing included file '/fetools/synopsys/installed_tools/vcs/vcs/Q-2020.03-SP2-8/etc/uvm-1.2/base/uvm_bottomup_phase.svh'.
Back to file '/fetools/synopsys/installed_tools/vcs/vcs/Q-2020.03-SP2-8/etc/uvm-1.2/base/uvm_base.svh'.
Parsing included file '/fetools/synopsys/installed_tools/vcs/vcs/Q-2020.03-SP2-8/etc/uvm-1.2/base/uvm_topdown_phase.svh'.
Back to file '/fetools/synopsys/installed_tools/vcs/vcs/Q-2020.03-SP2-8/etc/uvm-1.2/base/uvm_base.svh'.
Parsing included file '/fetools/synopsys/installed_tools/vcs/vcs/Q-2020.03-SP2-8/etc/uvm-1.2/base/uvm_task_phase.svh'.
Back to file '/fetools/synopsys/installed_tools/vcs/vcs/Q-2020.03-SP2-8/etc/uvm-1.2/base/uvm_base.svh'.
Parsing included file '/fetools/synopsys/installed_tools/vcs/vcs/Q-2020.03-SP2-8/etc/uvm-1.2/base/uvm_common_phases.svh'.
Back to file '/fetools/synopsys/installed_tools/vcs/vcs/Q-2020.03-SP2-8/etc/uvm-1.2/base/uvm_base.svh'.
Parsing included file '/fetools/synopsys/installed_tools/vcs/vcs/Q-2020.03-SP2-8/etc/uvm-1.2/base/uvm_runtime_phases.svh'.
Back to file '/fetools/synopsys/installed_tools/vcs/vcs/Q-2020.03-SP2-8/etc/uvm-1.2/base/uvm_base.svh'.
Parsing included file '/fetools/synopsys/installed_tools/vcs/vcs/Q-2020.03-SP2-8/etc/uvm-1.2/base/uvm_component.svh'.
Parsing included file '/fetools/synopsys/installed_tools/vcs/vcs/Q-2020.03-SP2-8/etc/uvm-1.2/base/uvm_root.svh'.
Back to file '/fetools/synopsys/installed_tools/vcs/vcs/Q-2020.03-SP2-8/etc/uvm-1.2/base/uvm_component.svh'.
Back to file '/fetools/synopsys/installed_tools/vcs/vcs/Q-2020.03-SP2-8/etc/uvm-1.2/base/uvm_base.svh'.
Parsing included file '/fetools/synopsys/installed_tools/vcs/vcs/Q-2020.03-SP2-8/etc/uvm-1.2/base/uvm_objection.svh'.
Back to file '/fetools/synopsys/installed_tools/vcs/vcs/Q-2020.03-SP2-8/etc/uvm-1.2/base/uvm_base.svh'.
Parsing included file '/fetools/synopsys/installed_tools/vcs/vcs/Q-2020.03-SP2-8/etc/uvm-1.2/base/uvm_heartbeat.svh'.
Back to file '/fetools/synopsys/installed_tools/vcs/vcs/Q-2020.03-SP2-8/etc/uvm-1.2/base/uvm_base.svh'.
Parsing included file '/fetools/synopsys/installed_tools/vcs/vcs/Q-2020.03-SP2-8/etc/uvm-1.2/base/uvm_globals.svh'.
Back to file '/fetools/synopsys/installed_tools/vcs/vcs/Q-2020.03-SP2-8/etc/uvm-1.2/base/uvm_base.svh'.
Parsing included file '/fetools/synopsys/installed_tools/vcs/vcs/Q-2020.03-SP2-8/etc/uvm-1.2/base/uvm_cmdline_processor.svh'.
Back to file '/fetools/synopsys/installed_tools/vcs/vcs/Q-2020.03-SP2-8/etc/uvm-1.2/base/uvm_base.svh'.
Parsing included file '/fetools/synopsys/installed_tools/vcs/vcs/Q-2020.03-SP2-8/etc/uvm-1.2/base/uvm_traversal.svh'.
Back to file '/fetools/synopsys/installed_tools/vcs/vcs/Q-2020.03-SP2-8/etc/uvm-1.2/base/uvm_base.svh'.
Back to file '/fetools/synopsys/installed_tools/vcs/vcs/Q-2020.03-SP2-8/etc/uvm-1.2/uvm_pkg.sv'.
Parsing included file '/fetools/synopsys/installed_tools/vcs/vcs/Q-2020.03-SP2-8/etc/uvm-1.2/dap/uvm_dap.svh'.
Parsing included file '/fetools/synopsys/installed_tools/vcs/vcs/Q-2020.03-SP2-8/etc/uvm-1.2/dap/uvm_set_get_dap_base.svh'.
Back to file '/fetools/synopsys/installed_tools/vcs/vcs/Q-2020.03-SP2-8/etc/uvm-1.2/dap/uvm_dap.svh'.
Parsing included file '/fetools/synopsys/installed_tools/vcs/vcs/Q-2020.03-SP2-8/etc/uvm-1.2/dap/uvm_simple_lock_dap.svh'.
Back to file '/fetools/synopsys/installed_tools/vcs/vcs/Q-2020.03-SP2-8/etc/uvm-1.2/dap/uvm_dap.svh'.
Parsing included file '/fetools/synopsys/installed_tools/vcs/vcs/Q-2020.03-SP2-8/etc/uvm-1.2/dap/uvm_get_to_lock_dap.svh'.
Back to file '/fetools/synopsys/installed_tools/vcs/vcs/Q-2020.03-SP2-8/etc/uvm-1.2/dap/uvm_dap.svh'.
Parsing included file '/fetools/synopsys/installed_tools/vcs/vcs/Q-2020.03-SP2-8/etc/uvm-1.2/dap/uvm_set_before_get_dap.svh'.
Back to file '/fetools/synopsys/installed_tools/vcs/vcs/Q-2020.03-SP2-8/etc/uvm-1.2/dap/uvm_dap.svh'.
Back to file '/fetools/synopsys/installed_tools/vcs/vcs/Q-2020.03-SP2-8/etc/uvm-1.2/uvm_pkg.sv'.
Parsing included file '/fetools/synopsys/installed_tools/vcs/vcs/Q-2020.03-SP2-8/etc/uvm-1.2/tlm1/uvm_tlm.svh'.
Parsing included file '/fetools/synopsys/installed_tools/vcs/vcs/Q-2020.03-SP2-8/etc/uvm-1.2/tlm1/uvm_tlm_ifs.svh'.
Back to file '/fetools/synopsys/installed_tools/vcs/vcs/Q-2020.03-SP2-8/etc/uvm-1.2/tlm1/uvm_tlm.svh'.
Parsing included file '/fetools/synopsys/installed_tools/vcs/vcs/Q-2020.03-SP2-8/etc/uvm-1.2/tlm1/uvm_sqr_ifs.svh'.
Back to file '/fetools/synopsys/installed_tools/vcs/vcs/Q-2020.03-SP2-8/etc/uvm-1.2/tlm1/uvm_tlm.svh'.
Parsing included file '/fetools/synopsys/installed_tools/vcs/vcs/Q-2020.03-SP2-8/etc/uvm-1.2/base/uvm_port_base.svh'.
Back to file '/fetools/synopsys/installed_tools/vcs/vcs/Q-2020.03-SP2-8/etc/uvm-1.2/tlm1/uvm_tlm.svh'.
Parsing included file '/fetools/synopsys/installed_tools/vcs/vcs/Q-2020.03-SP2-8/etc/uvm-1.2/tlm1/uvm_tlm_imps.svh'.
Back to file '/fetools/synopsys/installed_tools/vcs/vcs/Q-2020.03-SP2-8/etc/uvm-1.2/tlm1/uvm_tlm.svh'.
Parsing included file '/fetools/synopsys/installed_tools/vcs/vcs/Q-2020.03-SP2-8/etc/uvm-1.2/tlm1/uvm_imps.svh'.
Back to file '/fetools/synopsys/installed_tools/vcs/vcs/Q-2020.03-SP2-8/etc/uvm-1.2/tlm1/uvm_tlm.svh'.
Parsing included file '/fetools/synopsys/installed_tools/vcs/vcs/Q-2020.03-SP2-8/etc/uvm-1.2/tlm1/uvm_ports.svh'.
Back to file '/fetools/synopsys/installed_tools/vcs/vcs/Q-2020.03-SP2-8/etc/uvm-1.2/tlm1/uvm_tlm.svh'.
Parsing included file '/fetools/synopsys/installed_tools/vcs/vcs/Q-2020.03-SP2-8/etc/uvm-1.2/tlm1/uvm_exports.svh'.
Back to file '/fetools/synopsys/installed_tools/vcs/vcs/Q-2020.03-SP2-8/etc/uvm-1.2/tlm1/uvm_tlm.svh'.
Parsing included file '/fetools/synopsys/installed_tools/vcs/vcs/Q-2020.03-SP2-8/etc/uvm-1.2/tlm1/uvm_analysis_port.svh'.
Back to file '/fetools/synopsys/installed_tools/vcs/vcs/Q-2020.03-SP2-8/etc/uvm-1.2/tlm1/uvm_tlm.svh'.
Parsing included file '/fetools/synopsys/installed_tools/vcs/vcs/Q-2020.03-SP2-8/etc/uvm-1.2/tlm1/uvm_tlm_fifo_base.svh'.
Back to file '/fetools/synopsys/installed_tools/vcs/vcs/Q-2020.03-SP2-8/etc/uvm-1.2/tlm1/uvm_tlm.svh'.
Parsing included file '/fetools/synopsys/installed_tools/vcs/vcs/Q-2020.03-SP2-8/etc/uvm-1.2/tlm1/uvm_tlm_fifos.svh'.
Back to file '/fetools/synopsys/installed_tools/vcs/vcs/Q-2020.03-SP2-8/etc/uvm-1.2/tlm1/uvm_tlm.svh'.
Parsing included file '/fetools/synopsys/installed_tools/vcs/vcs/Q-2020.03-SP2-8/etc/uvm-1.2/tlm1/uvm_tlm_req_rsp.svh'.
Back to file '/fetools/synopsys/installed_tools/vcs/vcs/Q-2020.03-SP2-8/etc/uvm-1.2/tlm1/uvm_tlm.svh'.
Parsing included file '/fetools/synopsys/installed_tools/vcs/vcs/Q-2020.03-SP2-8/etc/uvm-1.2/tlm1/uvm_sqr_connections.svh'.
Back to file '/fetools/synopsys/installed_tools/vcs/vcs/Q-2020.03-SP2-8/etc/uvm-1.2/tlm1/uvm_tlm.svh'.
Back to file '/fetools/synopsys/installed_tools/vcs/vcs/Q-2020.03-SP2-8/etc/uvm-1.2/uvm_pkg.sv'.
Parsing included file '/fetools/synopsys/installed_tools/vcs/vcs/Q-2020.03-SP2-8/etc/uvm-1.2/comps/uvm_comps.svh'.
Parsing included file '/fetools/synopsys/installed_tools/vcs/vcs/Q-2020.03-SP2-8/etc/uvm-1.2/comps/uvm_pair.svh'.
Back to file '/fetools/synopsys/installed_tools/vcs/vcs/Q-2020.03-SP2-8/etc/uvm-1.2/comps/uvm_comps.svh'.
Parsing included file '/fetools/synopsys/installed_tools/vcs/vcs/Q-2020.03-SP2-8/etc/uvm-1.2/comps/uvm_policies.svh'.
Back to file '/fetools/synopsys/installed_tools/vcs/vcs/Q-2020.03-SP2-8/etc/uvm-1.2/comps/uvm_comps.svh'.
Parsing included file '/fetools/synopsys/installed_tools/vcs/vcs/Q-2020.03-SP2-8/etc/uvm-1.2/comps/uvm_in_order_comparator.svh'.
Back to file '/fetools/synopsys/installed_tools/vcs/vcs/Q-2020.03-SP2-8/etc/uvm-1.2/comps/uvm_comps.svh'.
Parsing included file '/fetools/synopsys/installed_tools/vcs/vcs/Q-2020.03-SP2-8/etc/uvm-1.2/comps/uvm_algorithmic_comparator.svh'.
Back to file '/fetools/synopsys/installed_tools/vcs/vcs/Q-2020.03-SP2-8/etc/uvm-1.2/comps/uvm_comps.svh'.
Parsing included file '/fetools/synopsys/installed_tools/vcs/vcs/Q-2020.03-SP2-8/etc/uvm-1.2/comps/uvm_random_stimulus.svh'.
Back to file '/fetools/synopsys/installed_tools/vcs/vcs/Q-2020.03-SP2-8/etc/uvm-1.2/comps/uvm_comps.svh'.
Parsing included file '/fetools/synopsys/installed_tools/vcs/vcs/Q-2020.03-SP2-8/etc/uvm-1.2/comps/uvm_subscriber.svh'.
Back to file '/fetools/synopsys/installed_tools/vcs/vcs/Q-2020.03-SP2-8/etc/uvm-1.2/comps/uvm_comps.svh'.
Parsing included file '/fetools/synopsys/installed_tools/vcs/vcs/Q-2020.03-SP2-8/etc/uvm-1.2/comps/uvm_monitor.svh'.
Back to file '/fetools/synopsys/installed_tools/vcs/vcs/Q-2020.03-SP2-8/etc/uvm-1.2/comps/uvm_comps.svh'.
Parsing included file '/fetools/synopsys/installed_tools/vcs/vcs/Q-2020.03-SP2-8/etc/uvm-1.2/comps/uvm_driver.svh'.
Back to file '/fetools/synopsys/installed_tools/vcs/vcs/Q-2020.03-SP2-8/etc/uvm-1.2/comps/uvm_comps.svh'.
Parsing included file '/fetools/synopsys/installed_tools/vcs/vcs/Q-2020.03-SP2-8/etc/uvm-1.2/comps/uvm_push_driver.svh'.
Back to file '/fetools/synopsys/installed_tools/vcs/vcs/Q-2020.03-SP2-8/etc/uvm-1.2/comps/uvm_comps.svh'.
Parsing included file '/fetools/synopsys/installed_tools/vcs/vcs/Q-2020.03-SP2-8/etc/uvm-1.2/comps/uvm_scoreboard.svh'.
Back to file '/fetools/synopsys/installed_tools/vcs/vcs/Q-2020.03-SP2-8/etc/uvm-1.2/comps/uvm_comps.svh'.
Parsing included file '/fetools/synopsys/installed_tools/vcs/vcs/Q-2020.03-SP2-8/etc/uvm-1.2/comps/uvm_agent.svh'.
Back to file '/fetools/synopsys/installed_tools/vcs/vcs/Q-2020.03-SP2-8/etc/uvm-1.2/comps/uvm_comps.svh'.
Parsing included file '/fetools/synopsys/installed_tools/vcs/vcs/Q-2020.03-SP2-8/etc/uvm-1.2/comps/uvm_env.svh'.
Back to file '/fetools/synopsys/installed_tools/vcs/vcs/Q-2020.03-SP2-8/etc/uvm-1.2/comps/uvm_comps.svh'.
Parsing included file '/fetools/synopsys/installed_tools/vcs/vcs/Q-2020.03-SP2-8/etc/uvm-1.2/comps/uvm_test.svh'.
Back to file '/fetools/synopsys/installed_tools/vcs/vcs/Q-2020.03-SP2-8/etc/uvm-1.2/comps/uvm_comps.svh'.
Back to file '/fetools/synopsys/installed_tools/vcs/vcs/Q-2020.03-SP2-8/etc/uvm-1.2/uvm_pkg.sv'.
Parsing included file '/fetools/synopsys/installed_tools/vcs/vcs/Q-2020.03-SP2-8/etc/uvm-1.2/seq/uvm_seq.svh'.
Parsing included file '/fetools/synopsys/installed_tools/vcs/vcs/Q-2020.03-SP2-8/etc/uvm-1.2/seq/uvm_sequence_item.svh'.
Back to file '/fetools/synopsys/installed_tools/vcs/vcs/Q-2020.03-SP2-8/etc/uvm-1.2/seq/uvm_seq.svh'.
Parsing included file '/fetools/synopsys/installed_tools/vcs/vcs/Q-2020.03-SP2-8/etc/uvm-1.2/seq/uvm_sequencer_base.svh'.
Back to file '/fetools/synopsys/installed_tools/vcs/vcs/Q-2020.03-SP2-8/etc/uvm-1.2/seq/uvm_seq.svh'.
Parsing included file '/fetools/synopsys/installed_tools/vcs/vcs/Q-2020.03-SP2-8/etc/uvm-1.2/seq/uvm_sequencer_analysis_fifo.svh'.
Back to file '/fetools/synopsys/installed_tools/vcs/vcs/Q-2020.03-SP2-8/etc/uvm-1.2/seq/uvm_seq.svh'.
Parsing included file '/fetools/synopsys/installed_tools/vcs/vcs/Q-2020.03-SP2-8/etc/uvm-1.2/seq/uvm_sequencer_param_base.svh'.
Back to file '/fetools/synopsys/installed_tools/vcs/vcs/Q-2020.03-SP2-8/etc/uvm-1.2/seq/uvm_seq.svh'.
Parsing included file '/fetools/synopsys/installed_tools/vcs/vcs/Q-2020.03-SP2-8/etc/uvm-1.2/seq/uvm_sequencer.svh'.
Back to file '/fetools/synopsys/installed_tools/vcs/vcs/Q-2020.03-SP2-8/etc/uvm-1.2/seq/uvm_seq.svh'.
Parsing included file '/fetools/synopsys/installed_tools/vcs/vcs/Q-2020.03-SP2-8/etc/uvm-1.2/seq/uvm_push_sequencer.svh'.
Back to file '/fetools/synopsys/installed_tools/vcs/vcs/Q-2020.03-SP2-8/etc/uvm-1.2/seq/uvm_seq.svh'.
Parsing included file '/fetools/synopsys/installed_tools/vcs/vcs/Q-2020.03-SP2-8/etc/uvm-1.2/seq/uvm_sequence_base.svh'.
Back to file '/fetools/synopsys/installed_tools/vcs/vcs/Q-2020.03-SP2-8/etc/uvm-1.2/seq/uvm_seq.svh'.
Parsing included file '/fetools/synopsys/installed_tools/vcs/vcs/Q-2020.03-SP2-8/etc/uvm-1.2/seq/uvm_sequence.svh'.
Back to file '/fetools/synopsys/installed_tools/vcs/vcs/Q-2020.03-SP2-8/etc/uvm-1.2/seq/uvm_seq.svh'.
Parsing included file '/fetools/synopsys/installed_tools/vcs/vcs/Q-2020.03-SP2-8/etc/uvm-1.2/seq/uvm_sequence_library.svh'.
Back to file '/fetools/synopsys/installed_tools/vcs/vcs/Q-2020.03-SP2-8/etc/uvm-1.2/seq/uvm_seq.svh'.
Parsing included file '/fetools/synopsys/installed_tools/vcs/vcs/Q-2020.03-SP2-8/etc/uvm-1.2/seq/uvm_sequence_builtin.svh'.
Back to file '/fetools/synopsys/installed_tools/vcs/vcs/Q-2020.03-SP2-8/etc/uvm-1.2/seq/uvm_seq.svh'.
Back to file '/fetools/synopsys/installed_tools/vcs/vcs/Q-2020.03-SP2-8/etc/uvm-1.2/uvm_pkg.sv'.
Parsing included file '/fetools/synopsys/installed_tools/vcs/vcs/Q-2020.03-SP2-8/etc/uvm-1.2/tlm2/uvm_tlm2.svh'.
Parsing included file '/fetools/synopsys/installed_tools/vcs/vcs/Q-2020.03-SP2-8/etc/uvm-1.2/tlm2/uvm_tlm2_defines.svh'.
Back to file '/fetools/synopsys/installed_tools/vcs/vcs/Q-2020.03-SP2-8/etc/uvm-1.2/tlm2/uvm_tlm2.svh'.
Parsing included file '/fetools/synopsys/installed_tools/vcs/vcs/Q-2020.03-SP2-8/etc/uvm-1.2/tlm2/uvm_tlm2_time.svh'.
Back to file '/fetools/synopsys/installed_tools/vcs/vcs/Q-2020.03-SP2-8/etc/uvm-1.2/tlm2/uvm_tlm2.svh'.
Parsing included file '/fetools/synopsys/installed_tools/vcs/vcs/Q-2020.03-SP2-8/etc/uvm-1.2/tlm2/uvm_tlm2_generic_payload.svh'.
Back to file '/fetools/synopsys/installed_tools/vcs/vcs/Q-2020.03-SP2-8/etc/uvm-1.2/tlm2/uvm_tlm2.svh'.
Parsing included file '/fetools/synopsys/installed_tools/vcs/vcs/Q-2020.03-SP2-8/etc/uvm-1.2/tlm2/uvm_tlm2_ifs.svh'.
Back to file '/fetools/synopsys/installed_tools/vcs/vcs/Q-2020.03-SP2-8/etc/uvm-1.2/tlm2/uvm_tlm2.svh'.
Parsing included file '/fetools/synopsys/installed_tools/vcs/vcs/Q-2020.03-SP2-8/etc/uvm-1.2/tlm2/uvm_tlm2_imps.svh'.
Back to file '/fetools/synopsys/installed_tools/vcs/vcs/Q-2020.03-SP2-8/etc/uvm-1.2/tlm2/uvm_tlm2.svh'.
Parsing included file '/fetools/synopsys/installed_tools/vcs/vcs/Q-2020.03-SP2-8/etc/uvm-1.2/tlm2/uvm_tlm2_ports.svh'.
Back to file '/fetools/synopsys/installed_tools/vcs/vcs/Q-2020.03-SP2-8/etc/uvm-1.2/tlm2/uvm_tlm2.svh'.
Parsing included file '/fetools/synopsys/installed_tools/vcs/vcs/Q-2020.03-SP2-8/etc/uvm-1.2/tlm2/uvm_tlm2_exports.svh'.
Back to file '/fetools/synopsys/installed_tools/vcs/vcs/Q-2020.03-SP2-8/etc/uvm-1.2/tlm2/uvm_tlm2.svh'.
Parsing included file '/fetools/synopsys/installed_tools/vcs/vcs/Q-2020.03-SP2-8/etc/uvm-1.2/tlm2/uvm_tlm2_sockets_base.svh'.
Back to file '/fetools/synopsys/installed_tools/vcs/vcs/Q-2020.03-SP2-8/etc/uvm-1.2/tlm2/uvm_tlm2.svh'.
Parsing included file '/fetools/synopsys/installed_tools/vcs/vcs/Q-2020.03-SP2-8/etc/uvm-1.2/tlm2/uvm_tlm2_sockets.svh'.
Back to file '/fetools/synopsys/installed_tools/vcs/vcs/Q-2020.03-SP2-8/etc/uvm-1.2/tlm2/uvm_tlm2.svh'.
Back to file '/fetools/synopsys/installed_tools/vcs/vcs/Q-2020.03-SP2-8/etc/uvm-1.2/uvm_pkg.sv'.
Parsing included file '/fetools/synopsys/installed_tools/vcs/vcs/Q-2020.03-SP2-8/etc/uvm-1.2/reg/uvm_reg_model.svh'.
Parsing included file '/fetools/synopsys/installed_tools/vcs/vcs/Q-2020.03-SP2-8/etc/uvm-1.2/reg/uvm_reg_item.svh'.
Back to file '/fetools/synopsys/installed_tools/vcs/vcs/Q-2020.03-SP2-8/etc/uvm-1.2/reg/uvm_reg_model.svh'.
Parsing included file '/fetools/synopsys/installed_tools/vcs/vcs/Q-2020.03-SP2-8/etc/uvm-1.2/reg/uvm_reg_adapter.svh'.
Back to file '/fetools/synopsys/installed_tools/vcs/vcs/Q-2020.03-SP2-8/etc/uvm-1.2/reg/uvm_reg_model.svh'.
Parsing included file '/fetools/synopsys/installed_tools/vcs/vcs/Q-2020.03-SP2-8/etc/uvm-1.2/reg/uvm_reg_predictor.svh'.
Back to file '/fetools/synopsys/installed_tools/vcs/vcs/Q-2020.03-SP2-8/etc/uvm-1.2/reg/uvm_reg_model.svh'.
Parsing included file '/fetools/synopsys/installed_tools/vcs/vcs/Q-2020.03-SP2-8/etc/uvm-1.2/reg/uvm_reg_sequence.svh'.
Back to file '/fetools/synopsys/installed_tools/vcs/vcs/Q-2020.03-SP2-8/etc/uvm-1.2/reg/uvm_reg_model.svh'.
Parsing included file '/fetools/synopsys/installed_tools/vcs/vcs/Q-2020.03-SP2-8/etc/uvm-1.2/reg/uvm_reg_cbs.svh'.
Back to file '/fetools/synopsys/installed_tools/vcs/vcs/Q-2020.03-SP2-8/etc/uvm-1.2/reg/uvm_reg_model.svh'.
Parsing included file '/fetools/synopsys/installed_tools/vcs/vcs/Q-2020.03-SP2-8/etc/uvm-1.2/reg/uvm_reg_backdoor.svh'.
Back to file '/fetools/synopsys/installed_tools/vcs/vcs/Q-2020.03-SP2-8/etc/uvm-1.2/reg/uvm_reg_model.svh'.
Parsing included file '/fetools/synopsys/installed_tools/vcs/vcs/Q-2020.03-SP2-8/etc/uvm-1.2/reg/uvm_reg_field.svh'.
Back to file '/fetools/synopsys/installed_tools/vcs/vcs/Q-2020.03-SP2-8/etc/uvm-1.2/reg/uvm_reg_model.svh'.
Parsing included file '/fetools/synopsys/installed_tools/vcs/vcs/Q-2020.03-SP2-8/etc/uvm-1.2/reg/uvm_vreg_field.svh'.
Back to file '/fetools/synopsys/installed_tools/vcs/vcs/Q-2020.03-SP2-8/etc/uvm-1.2/reg/uvm_reg_model.svh'.
Parsing included file '/fetools/synopsys/installed_tools/vcs/vcs/Q-2020.03-SP2-8/etc/uvm-1.2/reg/uvm_reg.svh'.
Back to file '/fetools/synopsys/installed_tools/vcs/vcs/Q-2020.03-SP2-8/etc/uvm-1.2/reg/uvm_reg_model.svh'.
Parsing included file '/fetools/synopsys/installed_tools/vcs/vcs/Q-2020.03-SP2-8/etc/uvm-1.2/reg/uvm_reg_indirect.svh'.
Back to file '/fetools/synopsys/installed_tools/vcs/vcs/Q-2020.03-SP2-8/etc/uvm-1.2/reg/uvm_reg_model.svh'.
Parsing included file '/fetools/synopsys/installed_tools/vcs/vcs/Q-2020.03-SP2-8/etc/uvm-1.2/reg/uvm_reg_fifo.svh'.
Back to file '/fetools/synopsys/installed_tools/vcs/vcs/Q-2020.03-SP2-8/etc/uvm-1.2/reg/uvm_reg_model.svh'.
Parsing included file '/fetools/synopsys/installed_tools/vcs/vcs/Q-2020.03-SP2-8/etc/uvm-1.2/reg/uvm_reg_file.svh'.
Back to file '/fetools/synopsys/installed_tools/vcs/vcs/Q-2020.03-SP2-8/etc/uvm-1.2/reg/uvm_reg_model.svh'.
Parsing included file '/fetools/synopsys/installed_tools/vcs/vcs/Q-2020.03-SP2-8/etc/uvm-1.2/reg/uvm_mem_mam.svh'.
Back to file '/fetools/synopsys/installed_tools/vcs/vcs/Q-2020.03-SP2-8/etc/uvm-1.2/reg/uvm_reg_model.svh'.
Parsing included file '/fetools/synopsys/installed_tools/vcs/vcs/Q-2020.03-SP2-8/etc/uvm-1.2/reg/uvm_vreg.svh'.
Back to file '/fetools/synopsys/installed_tools/vcs/vcs/Q-2020.03-SP2-8/etc/uvm-1.2/reg/uvm_reg_model.svh'.
Parsing included file '/fetools/synopsys/installed_tools/vcs/vcs/Q-2020.03-SP2-8/etc/uvm-1.2/reg/uvm_mem.svh'.
Back to file '/fetools/synopsys/installed_tools/vcs/vcs/Q-2020.03-SP2-8/etc/uvm-1.2/reg/uvm_reg_model.svh'.
Parsing included file '/fetools/synopsys/installed_tools/vcs/vcs/Q-2020.03-SP2-8/etc/uvm-1.2/reg/uvm_reg_map.svh'.
Back to file '/fetools/synopsys/installed_tools/vcs/vcs/Q-2020.03-SP2-8/etc/uvm-1.2/reg/uvm_reg_model.svh'.
Parsing included file '/fetools/synopsys/installed_tools/vcs/vcs/Q-2020.03-SP2-8/etc/uvm-1.2/reg/uvm_reg_block.svh'.
Back to file '/fetools/synopsys/installed_tools/vcs/vcs/Q-2020.03-SP2-8/etc/uvm-1.2/reg/uvm_reg_model.svh'.
Parsing included file '/fetools/synopsys/installed_tools/vcs/vcs/Q-2020.03-SP2-8/etc/uvm-1.2/reg/sequences/uvm_reg_hw_reset_seq.svh'.
Back to file '/fetools/synopsys/installed_tools/vcs/vcs/Q-2020.03-SP2-8/etc/uvm-1.2/reg/uvm_reg_model.svh'.
Parsing included file '/fetools/synopsys/installed_tools/vcs/vcs/Q-2020.03-SP2-8/etc/uvm-1.2/reg/sequences/uvm_reg_bit_bash_seq.svh'.
Back to file '/fetools/synopsys/installed_tools/vcs/vcs/Q-2020.03-SP2-8/etc/uvm-1.2/reg/uvm_reg_model.svh'.
Parsing included file '/fetools/synopsys/installed_tools/vcs/vcs/Q-2020.03-SP2-8/etc/uvm-1.2/reg/sequences/uvm_mem_walk_seq.svh'.
Back to file '/fetools/synopsys/installed_tools/vcs/vcs/Q-2020.03-SP2-8/etc/uvm-1.2/reg/uvm_reg_model.svh'.
Parsing included file '/fetools/synopsys/installed_tools/vcs/vcs/Q-2020.03-SP2-8/etc/uvm-1.2/reg/sequences/uvm_mem_access_seq.svh'.
Back to file '/fetools/synopsys/installed_tools/vcs/vcs/Q-2020.03-SP2-8/etc/uvm-1.2/reg/uvm_reg_model.svh'.
Parsing included file '/fetools/synopsys/installed_tools/vcs/vcs/Q-2020.03-SP2-8/etc/uvm-1.2/reg/sequences/uvm_reg_access_seq.svh'.
Back to file '/fetools/synopsys/installed_tools/vcs/vcs/Q-2020.03-SP2-8/etc/uvm-1.2/reg/uvm_reg_model.svh'.
Parsing included file '/fetools/synopsys/installed_tools/vcs/vcs/Q-2020.03-SP2-8/etc/uvm-1.2/reg/sequences/uvm_reg_mem_shared_access_seq.svh'.
Back to file '/fetools/synopsys/installed_tools/vcs/vcs/Q-2020.03-SP2-8/etc/uvm-1.2/reg/uvm_reg_model.svh'.
Parsing included file '/fetools/synopsys/installed_tools/vcs/vcs/Q-2020.03-SP2-8/etc/uvm-1.2/reg/sequences/uvm_reg_mem_built_in_seq.svh'.
Back to file '/fetools/synopsys/installed_tools/vcs/vcs/Q-2020.03-SP2-8/etc/uvm-1.2/reg/uvm_reg_model.svh'.
Parsing included file '/fetools/synopsys/installed_tools/vcs/vcs/Q-2020.03-SP2-8/etc/uvm-1.2/reg/sequences/uvm_reg_mem_hdl_paths_seq.svh'.
Back to file '/fetools/synopsys/installed_tools/vcs/vcs/Q-2020.03-SP2-8/etc/uvm-1.2/reg/uvm_reg_model.svh'.
Parsing included file '/fetools/synopsys/installed_tools/vcs/vcs/Q-2020.03-SP2-8/etc/uvm-1.2/reg/snps_uvm_reg_bank.svh'.
Back to file '/fetools/synopsys/installed_tools/vcs/vcs/Q-2020.03-SP2-8/etc/uvm-1.2/reg/uvm_reg_model.svh'.
Back to file '/fetools/synopsys/installed_tools/vcs/vcs/Q-2020.03-SP2-8/etc/uvm-1.2/uvm_pkg.sv'.
Parsing included file '/fetools/synopsys/installed_tools/vcs/vcs/Q-2020.03-SP2-8/etc/uvm-1.2/vcs/vcs_uvm_alt.sv'.
Back to file '/fetools/synopsys/installed_tools/vcs/vcs/Q-2020.03-SP2-8/etc/uvm-1.2/uvm_pkg.sv'.
Parsing design file '/fetools/synopsys/installed_tools/vcs/vcs/Q-2020.03-SP2-8/etc/uvm-1.2/vcs/uvm_custom_install_vcs_recorder.sv'
Parsing included file '/fetools/synopsys/installed_tools/vcs/vcs/Q-2020.03-SP2-8/etc/uvm-1.2/vcs/msglog.svh'.
Back to file '/fetools/synopsys/installed_tools/vcs/vcs/Q-2020.03-SP2-8/etc/uvm-1.2/vcs/uvm_custom_install_vcs_recorder.sv'.
Parsing included file '/fetools/synopsys/installed_tools/vcs/vcs/Q-2020.03-SP2-8/etc/uvm-1.2/vcs/uvm_msglog_report_server.sv'.
Back to file '/fetools/synopsys/installed_tools/vcs/vcs/Q-2020.03-SP2-8/etc/uvm-1.2/vcs/uvm_custom_install_vcs_recorder.sv'.
Parsing included file '/fetools/synopsys/installed_tools/vcs/vcs/Q-2020.03-SP2-8/etc/uvm-1.2/vcs/uvm_vcs_recorder.svh'.
Parsing included file '/fetools/synopsys/installed_tools/vcs/vcs/Q-2020.03-SP2-8/etc/uvm-1.2/vcs/uvm_vcs_tr_database.svh'.
Parsing included file '/fetools/synopsys/installed_tools/vcs/vcs/Q-2020.03-SP2-8/etc/uvm-1.2/vcs/uvm_vcs_tr_stream.svh'.
Back to file '/fetools/synopsys/installed_tools/vcs/vcs/Q-2020.03-SP2-8/etc/uvm-1.2/vcs/uvm_vcs_tr_database.svh'.
Back to file '/fetools/synopsys/installed_tools/vcs/vcs/Q-2020.03-SP2-8/etc/uvm-1.2/vcs/uvm_vcs_recorder.svh'.
Back to file '/fetools/synopsys/installed_tools/vcs/vcs/Q-2020.03-SP2-8/etc/uvm-1.2/vcs/uvm_custom_install_vcs_recorder.sv'.
Parsing included file '/fetools/synopsys/installed_tools/vcs/vcs/Q-2020.03-SP2-8/etc/uvm-1.2/vcs/uvm_vcs_record_interface.sv'.
Parsing included file '/fetools/synopsys/installed_tools/vcs/vcs/Q-2020.03-SP2-8/etc/uvm-1.2/macros/uvm_global_defines.svh'.
Back to file '/fetools/synopsys/installed_tools/vcs/vcs/Q-2020.03-SP2-8/etc/uvm-1.2/vcs/uvm_vcs_record_interface.sv'.
Back to file '/fetools/synopsys/installed_tools/vcs/vcs/Q-2020.03-SP2-8/etc/uvm-1.2/vcs/uvm_custom_install_vcs_recorder.sv'.
Parsing design file '/fetools/synopsys/installed_tools/vcs/vcs/Q-2020.03-SP2-8/etc/uvm-1.2/verdi/uvm_custom_install_verdi_recorder.sv'
Parsing included file '/fetools/synopsys/installed_tools/vcs/vcs/Q-2020.03-SP2-8/etc/uvm-1.2/uvm_macros.svh'.
Back to file '/fetools/synopsys/installed_tools/vcs/vcs/Q-2020.03-SP2-8/etc/uvm-1.2/verdi/uvm_custom_install_verdi_recorder.sv'.
Parsing included file '/fetools/synopsys/installed_tools/vcs/vcs/Q-2020.03-SP2-8/etc/uvm-1.2/verdi/uvm_verdi_recorder.svh'.
Parsing included file '/fetools/synopsys/installed_tools/vcs/vcs/Q-2020.03-SP2-8/etc/uvm-1.2/verdi/uvm_verdi_pli_base.svh'.
Back to file '/fetools/synopsys/installed_tools/vcs/vcs/Q-2020.03-SP2-8/etc/uvm-1.2/verdi/uvm_verdi_recorder.svh'.
Parsing included file '/fetools/synopsys/installed_tools/vcs/vcs/Q-2020.03-SP2-8/etc/uvm-1.2/verdi/uvm_verdi_tr_database.svh'.
Parsing included file '/fetools/synopsys/installed_tools/vcs/vcs/Q-2020.03-SP2-8/etc/uvm-1.2/verdi/uvm_verdi_tr_stream.svh'.
Back to file '/fetools/synopsys/installed_tools/vcs/vcs/Q-2020.03-SP2-8/etc/uvm-1.2/verdi/uvm_verdi_tr_database.svh'.
Back to file '/fetools/synopsys/installed_tools/vcs/vcs/Q-2020.03-SP2-8/etc/uvm-1.2/verdi/uvm_verdi_recorder.svh'.
Back to file '/fetools/synopsys/installed_tools/vcs/vcs/Q-2020.03-SP2-8/etc/uvm-1.2/verdi/uvm_custom_install_verdi_recorder.sv'.
Parsing included file '/fetools/synopsys/installed_tools/vcs/vcs/Q-2020.03-SP2-8/etc/uvm-1.2/verdi/uvm_verdi_reg_map_recording.sv'.
Back to file '/fetools/synopsys/installed_tools/vcs/vcs/Q-2020.03-SP2-8/etc/uvm-1.2/verdi/uvm_custom_install_verdi_recorder.sv'.
Parsing included file '/fetools/synopsys/installed_tools/vcs/vcs/Q-2020.03-SP2-8/etc/uvm-1.2/verdi/uvm_verdi_message_catcher.svh'.
Parsing included file '/fetools/synopsys/installed_tools/vcs/vcs/Q-2020.03-SP2-8/etc/uvm-1.2/verdi/uvm_verdi_pli_base.svh'.
Back to file '/fetools/synopsys/installed_tools/vcs/vcs/Q-2020.03-SP2-8/etc/uvm-1.2/verdi/uvm_verdi_message_catcher.svh'.
Back to file '/fetools/synopsys/installed_tools/vcs/vcs/Q-2020.03-SP2-8/etc/uvm-1.2/verdi/uvm_custom_install_verdi_recorder.sv'.
Parsing included file '/fetools/synopsys/installed_tools/vcs/vcs/Q-2020.03-SP2-8/etc/uvm-1.2/verdi/uvm_verdi_factory.svh'.
Back to file '/fetools/synopsys/installed_tools/vcs/vcs/Q-2020.03-SP2-8/etc/uvm-1.2/verdi/uvm_custom_install_verdi_recorder.sv'.
Parsing included file '/fetools/synopsys/installed_tools/vcs/vcs/Q-2020.03-SP2-8/etc/uvm-1.2/verdi/./dpi/uvm_verdi_dpi.svh'.
Back to file '/fetools/synopsys/installed_tools/vcs/vcs/Q-2020.03-SP2-8/etc/uvm-1.2/verdi/uvm_custom_install_verdi_recorder.sv'.
Parsing included file '/fetools/synopsys/installed_tools/vcs/vcs/Q-2020.03-SP2-8/etc/uvm-1.2/verdi/uvm_verdi_reg_recording.sv'.
Back to file '/fetools/synopsys/installed_tools/vcs/vcs/Q-2020.03-SP2-8/etc/uvm-1.2/verdi/uvm_custom_install_verdi_recorder.sv'.
Parsing included file '/fetools/synopsys/installed_tools/verdi/verdi/Q-2020.03-SP2-8/share/PLI/VCS/include/verdi_trans_recorder_dpi.svh'.
Back to file '/fetools/synopsys/installed_tools/vcs/vcs/Q-2020.03-SP2-8/etc/uvm-1.2/verdi/uvm_custom_install_verdi_recorder.sv'.
Parsing included file '/fetools/synopsys/installed_tools/vcs/vcs/Q-2020.03-SP2-8/etc/uvm-1.2/verdi/uvm_verdi_pli.svh'.
Back to file '/fetools/synopsys/installed_tools/vcs/vcs/Q-2020.03-SP2-8/etc/uvm-1.2/verdi/uvm_custom_install_verdi_recorder.sv'.
Parsing design file '/fetools/synopsys/installed_tools/vcs/vcs/Q-2020.03-SP2-8/etc/uvm-1.2/verdi/uvm_custom_install_verdi_recorder.sv'
Parsing design file 'top.sv'
Parsing included file 'DUT.sv'.
Back to file 'top.sv'.
Parsing included file 'package.sv'.
Parsing included file 'defines.svh'.
Back to file 'package.sv'.
Parsing included file '/fetools/synopsys/installed_tools/vcs/vcs/Q-2020.03-SP2-8/etc/uvm-1.2/uvm_macros.svh'.
Back to file 'package.sv'.
Parsing included file 'my_transaction.sv'.
Back to file 'package.sv'.
Parsing included file 'sequencer.sv'.
Back to file 'package.sv'.
Parsing included file 'sequences.sv'.
Back to file 'package.sv'.
Parsing included file 'driver.sv'.
Back to file 'package.sv'.
Parsing included file 'monitor.sv'.
Back to file 'package.sv'.
Parsing included file 'agent.sv'.
Back to file 'package.sv'.
Parsing included file 'subscriber.sv'.
Back to file 'package.sv'.
Parsing included file 'scoreboard.sv'.
Back to file 'package.sv'.
Parsing included file 'environment.sv'.
Back to file 'package.sv'.
Parsing included file 'test.sv'.
Back to file 'package.sv'.
Back to file 'top.sv'.
Parsing included file 'interface.sv'.
Back to file 'top.sv'.
Top Level Modules:
       uvm_custom_install_recording
       uvm_custom_install_verdi_recording
       top
No TimeScale specified
Starting vcs inline pass...

10 modules and 0 UDP read.
recompiling package vcs_paramclassrepository
recompiling package uvm_pkg
recompiling module uvm_custom_install_recording
recompiling module uvm_custom_install_verdi_recording
recompiling package pkg
recompiling module top
6 of 10 modules done
	However, due to incremental compilation, only 6 modules need to be compiled. 
( cd csrc ; make -f Makefile SNPS_VCS_TMPDIR=/tmp/vcs_20260916173314_144609 product \
)
rm -f _cuarc*.so _csrc*.so pre_vcsobj_*.so share_vcsobj_*.so
ld -shared  -Bsymbolic   -o .//../simv.daidir//_cuarc0.so objs/amcQw_d.o 
rm -f _cuarc0.so
if [ -x ../simv ]; then chmod a-x ../simv; fi
g++  -o ../simv      -rdynamic  -Wl,-rpath='$ORIGIN'/simv.daidir -Wl,-rpath=./simv.daidir \
-Wl,-rpath=/fetools/synopsys/installed_tools/vcs/vcs/Q-2020.03-SP2-8/linux64/lib \
-L/fetools/synopsys/installed_tools/vcs/vcs/Q-2020.03-SP2-8/linux64/lib  -Wl,-rpath-link=./ \
/usr/lib64/libnuma.so.1 uvm_dpi.o uvm_verdi_dpi.o     _145226_archive_1.so _prev_archive_1.so \
_cuarc0.so  SIM_l.o      rmapats_mop.o rmapats.o rmar.o rmar_nd.o  rmar_llvm_0_1.o \
rmar_llvm_0_0.o          -lvirsim -lerrorinf -lsnpsmalloc -lvfs    -lvcsnew -lsimprofile \
-luclinative /fetools/synopsys/installed_tools/vcs/vcs/Q-2020.03-SP2-8/linux64/lib/vcs_tls.o \
-Wl,-whole-archive  -lvcsucli    -Wl,-no-whole-archive       ./../simv.daidir/vc_hdrs.o \
_vcs_pli_stub_.o   /fetools/synopsys/installed_tools/vcs/vcs/Q-2020.03-SP2-8/linux64/lib/vcs_save_restore_new.o \
/fetools/synopsys/installed_tools/verdi/verdi/Q-2020.03-SP2-8/share/PLI/VCS/LINUX64/pli.a \
-ldl  -lc -lm -lpthread -ldl 
../simv up to date
Running simv -V +v2k -a fell.log 
Command: /fetools/work_area/frontend/Batch_11/rakshanshetty/systemverilog/UVM_AXI4_LITE/./simv -V +v2k -a fell.log
Chronologic VCS simulator copyright 1991-2020
Contains Synopsys proprietary information.
Compiler version Q-2020.03-SP2-8_Full64; Runtime version Q-2020.03-SP2-8_Full64;  Sep 16 23:03 2026
VCS Build Date = Sep 11 2021 20:22:52
Start run at Sep 16 23:03 2026

UVM_INFO /fetools/synopsys/installed_tools/vcs/vcs/Q-2020.03-SP2-8/etc/uvm-1.2/base/uvm_root.svh(402) @ 0: reporter [UVM/RELNOTES] 
----------------------------------------------------------------
UVM-1.2.Synopsys
(C) 2007-2014 Mentor Graphics Corporation
(C) 2007-2014 Cadence Design Systems, Inc.
(C) 2006-2014 Synopsys, Inc.
(C) 2011-2013 Cypress Semiconductor Corp.
(C) 2013-2014 NVIDIA Corporation
----------------------------------------------------------------

  ***********       IMPORTANT RELEASE NOTES         ************

  You are using a version of the UVM library that has been compiled
  with `UVM_NO_DEPRECATED undefined.
  See http://www.eda.org/svdb/view.php?id=3313 for more details.

  You are using a version of the UVM library that has been compiled
  with `UVM_OBJECT_DO_NOT_NEED_CONSTRUCTOR undefined.
  See http://www.eda.org/svdb/view.php?id=3770 for more details.

      (Specify +UVM_NO_RELNOTES to turn off this notice)

UVM_INFO @ 0: reporter [RNTST] Running test test...
UVM_INFO /fetools/synopsys/installed_tools/vcs/vcs/Q-2020.03-SP2-8/etc/uvm-1.2/base/uvm_root.svh(589) @ 0: reporter [UVMTOP] UVM testbench topology:
--------------------------------------------------------------
Name                       Type                    Size  Value
--------------------------------------------------------------
uvm_test_top               test                    -     @342 
  env                      environment             -     @360 
    act                    agent                   -     @369 
      drv                  driver                  -     @457 
        rsp_port           uvm_analysis_port       -     @476 
        seq_item_port      uvm_seq_item_pull_port  -     @466 
      mon                  monitor                 -     @437 
        ap                 uvm_analysis_port       -     @446 
      sqr                  uvm_sequencer           -     @486 
        rsp_export         uvm_analysis_export     -     @495 
        seq_item_export    uvm_seq_item_pull_imp   -     @613 
        arbitration_queue  array                   0     -    
        lock_queue         array                   0     -    
        num_last_reqs      integral                32    'd1  
        num_last_rsps      integral                32    'd1  
    pass                   agent                   -     @378 
      mon                  monitor                 -     @632 
        ap                 uvm_analysis_port       -     @641 
    sc                     scoreboard              -     @387 
      in_mon               uvm_analysis_imp        -     @396 
      out_mon              uvm_analysis_imp_out    -     @406 
    sub                    subscriber              -     @416 
      analysis_imp         uvm_analysis_imp        -     @425 
      out_mon              uvm_analysis_imp_out    -     @653 
--------------------------------------------------------------

UVM_INFO sequences.sv(53) @ 0: uvm_test_top.env.act.sqr@@seq [SEQ] AWADDR=2565871470,AWPROT=0,AWVALID=0,WDATA=2944509091,WSTRB=101,WVALID=0,ARADDR=18,ARPROT=0,ARVALID=0,RREADY=1
UVM_INFO driver.sv(37) @ 5: uvm_test_top.env.act.drv [DRV] AW=2565871470/0/0 W=2944509091/101/0 AR=18/0/0 BREADY=0 RREADY=1
UVM_INFO sequences.sv(53) @ 5: uvm_test_top.env.act.sqr@@seq [SEQ] AWADDR=3708782765,AWPROT=0,AWVALID=1,WDATA=2200498967,WSTRB=111,WVALID=0,ARADDR=30,ARPROT=0,ARVALID=0,RREADY=0
UVM_INFO driver.sv(37) @ 15: uvm_test_top.env.act.drv [DRV] AW=3708782765/0/1 W=2200498967/111/0 AR=30/0/0 BREADY=0 RREADY=0
UVM_INFO sequences.sv(53) @ 15: uvm_test_top.env.act.sqr@@seq [SEQ] AWADDR=3958160863,AWPROT=0,AWVALID=0,WDATA=304522503,WSTRB=111,WVALID=0,ARADDR=2970781662,ARPROT=0,ARVALID=0,RREADY=0
UVM_INFO driver.sv(37) @ 25: uvm_test_top.env.act.drv [DRV] AW=3958160863/0/0 W=304522503/111/0 AR=2970781662/0/0 BREADY=1 RREADY=0
UVM_INFO scoreboard.sv(53) @ 25: uvm_test_top.env.sc [SCOREBOARD] DUT: BRESP=0, RDATA=0, RRESP=0
REF: BRESP=0, RDATA=0, RRESP=0


UVM_INFO sequences.sv(53) @ 25: uvm_test_top.env.act.sqr@@seq [SEQ] AWADDR=2814500878,AWPROT=0,AWVALID=1,WDATA=1183513156,WSTRB=1000,WVALID=1,ARADDR=5,ARPROT=0,ARVALID=0,RREADY=1
UVM_INFO driver.sv(37) @ 35: uvm_test_top.env.act.drv [DRV] AW=2814500878/0/1 W=1183513156/1000/1 AR=5/0/0 BREADY=0 RREADY=1
UVM_INFO scoreboard.sv(53) @ 35: uvm_test_top.env.sc [SCOREBOARD] DUT: BRESP=0, RDATA=0, RRESP=0
REF: BRESP=0, RDATA=0, RRESP=0


UVM_INFO sequences.sv(53) @ 35: uvm_test_top.env.act.sqr@@seq [SEQ] AWADDR=18,AWPROT=0,AWVALID=0,WDATA=2201891370,WSTRB=1100,WVALID=1,ARADDR=52,ARPROT=0,ARVALID=1,RREADY=0
UVM_INFO driver.sv(37) @ 45: uvm_test_top.env.act.drv [DRV] AW=18/0/0 W=2201891370/1100/1 AR=52/0/1 BREADY=0 RREADY=0
UVM_INFO scoreboard.sv(53) @ 45: uvm_test_top.env.sc [SCOREBOARD] DUT: BRESP=0, RDATA=0, RRESP=0
REF: BRESP=0, RDATA=0, RRESP=0


UVM_INFO sequences.sv(53) @ 45: uvm_test_top.env.act.sqr@@seq [SEQ] AWADDR=50,AWPROT=0,AWVALID=0,WDATA=2201891370,WSTRB=1100,WVALID=1,ARADDR=52,ARPROT=0,ARVALID=1,RREADY=0
UVM_INFO driver.sv(37) @ 55: uvm_test_top.env.act.drv [DRV] AW=50/0/0 W=2201891370/1100/1 AR=52/0/1 BREADY=0 RREADY=0
UVM_INFO scoreboard.sv(53) @ 55: uvm_test_top.env.sc [SCOREBOARD] DUT: BRESP=0, RDATA=0, RRESP=0
REF: BRESP=0, RDATA=0, RRESP=0


UVM_INFO sequences.sv(53) @ 55: uvm_test_top.env.act.sqr@@seq [SEQ] AWADDR=1100236132,AWPROT=0,AWVALID=0,WDATA=2201891370,WSTRB=1100,WVALID=1,ARADDR=52,ARPROT=0,ARVALID=1,RREADY=0
UVM_INFO driver.sv(37) @ 65: uvm_test_top.env.act.drv [DRV] AW=1100236132/0/0 W=2201891370/1100/1 AR=52/0/1 BREADY=0 RREADY=0
UVM_INFO /fetools/synopsys/installed_tools/vcs/vcs/Q-2020.03-SP2-8/etc/uvm-1.2/base/uvm_comparer.svh(351) @ 65: reporter [MISCMP] Miscompare for tr.BRESP: lhs = 'h3 : rhs = 'h0
UVM_INFO /fetools/synopsys/installed_tools/vcs/vcs/Q-2020.03-SP2-8/etc/uvm-1.2/base/uvm_comparer.svh(382) @ 65: reporter [MISCMP] 1 Miscompare(s) for object tr@831 vs. tr@805
UVM_INFO scoreboard.sv(56) @ 65: uvm_test_top.env.sc [SCOREBOARD] DUT: BRESP=0, RDATA=0, RRESP=2
REF: BRESP=3, RDATA=0, RRESP=2
_______________________________________________________________________________________________________________________
_
UVM_INFO sequences.sv(53) @ 65: uvm_test_top.env.act.sqr@@seq [SEQ] AWADDR=8,AWPROT=0,AWVALID=0,WDATA=2201891370,WSTRB=1100,WVALID=1,ARADDR=35,ARPROT=0,ARVALID=1,RREADY=0
UVM_INFO driver.sv(37) @ 75: uvm_test_top.env.act.drv [DRV] AW=8/0/0 W=2201891370/1100/1 AR=35/0/1 BREADY=1 RREADY=0
UVM_INFO /fetools/synopsys/installed_tools/vcs/vcs/Q-2020.03-SP2-8/etc/uvm-1.2/base/uvm_comparer.svh(351) @ 75: reporter [MISCMP] Miscompare for tr.BRESP: lhs = 'h3 : rhs = 'h2
UVM_INFO /fetools/synopsys/installed_tools/vcs/vcs/Q-2020.03-SP2-8/etc/uvm-1.2/base/uvm_comparer.svh(382) @ 75: reporter [MISCMP] 1 Miscompare(s) for object tr@853 vs. tr@827
UVM_INFO scoreboard.sv(56) @ 75: uvm_test_top.env.sc [SCOREBOARD] DUT: BRESP=2, RDATA=0, RRESP=2
REF: BRESP=3, RDATA=0, RRESP=2
_______________________________________________________________________________________________________________________
_
UVM_INFO sequences.sv(53) @ 75: uvm_test_top.env.act.sqr@@seq [SEQ] AWADDR=2310435797,AWPROT=0,AWVALID=1,WDATA=2201891370,WSTRB=1100,WVALID=1,ARADDR=3152695738,ARPROT=0,ARVALID=1,RREADY=1
UVM_INFO driver.sv(37) @ 85: uvm_test_top.env.act.drv [DRV] AW=2310435797/0/1 W=2201891370/1100/1 AR=3152695738/0/1 BREADY=0 RREADY=1
UVM_INFO /fetools/synopsys/installed_tools/vcs/vcs/Q-2020.03-SP2-8/etc/uvm-1.2/base/uvm_comparer.svh(351) @ 85: reporter [MISCMP] Miscompare for tr.BRESP: lhs = 'h3 : rhs = 'h2
UVM_INFO /fetools/synopsys/installed_tools/vcs/vcs/Q-2020.03-SP2-8/etc/uvm-1.2/base/uvm_comparer.svh(382) @ 85: reporter [MISCMP] 1 Miscompare(s) for object tr@879 vs. tr@849
UVM_INFO scoreboard.sv(56) @ 85: uvm_test_top.env.sc [SCOREBOARD] DUT: BRESP=2, RDATA=0, RRESP=2
REF: BRESP=3, RDATA=0, RRESP=2
_______________________________________________________________________________________________________________________
_
UVM_INFO sequences.sv(53) @ 85: uvm_test_top.env.act.sqr@@seq [SEQ] AWADDR=42,AWPROT=0,AWVALID=1,WDATA=2201891370,WSTRB=1100,WVALID=1,ARADDR=3843969755,ARPROT=0,ARVALID=0,RREADY=0
UVM_INFO driver.sv(37) @ 95: uvm_test_top.env.act.drv [DRV] AW=42/0/1 W=2201891370/1100/1 AR=3843969755/0/0 BREADY=0 RREADY=0
UVM_INFO /fetools/synopsys/installed_tools/vcs/vcs/Q-2020.03-SP2-8/etc/uvm-1.2/base/uvm_comparer.svh(351) @ 95: reporter [MISCMP] Miscompare for tr.BRESP: lhs = 'h3 : rhs = 'h2
UVM_INFO /fetools/synopsys/installed_tools/vcs/vcs/Q-2020.03-SP2-8/etc/uvm-1.2/base/uvm_comparer.svh(382) @ 95: reporter [MISCMP] 1 Miscompare(s) for object tr@905 vs. tr@875
UVM_INFO scoreboard.sv(56) @ 95: uvm_test_top.env.sc [SCOREBOARD] DUT: BRESP=2, RDATA=0, RRESP=2
REF: BRESP=3, RDATA=0, RRESP=2
_______________________________________________________________________________________________________________________
_
UVM_INFO sequences.sv(53) @ 95: uvm_test_top.env.act.sqr@@seq [SEQ] AWADDR=49,AWPROT=0,AWVALID=0,WDATA=2201891370,WSTRB=1100,WVALID=1,ARADDR=30,ARPROT=0,ARVALID=0,RREADY=0
UVM_INFO driver.sv(37) @ 105: uvm_test_top.env.act.drv [DRV] AW=49/0/0 W=2201891370/1100/1 AR=30/0/0 BREADY=1 RREADY=0
UVM_INFO /fetools/synopsys/installed_tools/vcs/vcs/Q-2020.03-SP2-8/etc/uvm-1.2/base/uvm_comparer.svh(351) @ 105: reporter [MISCMP] Miscompare for tr.BRESP: lhs = 'h3 : rhs = 'h2
UVM_INFO /fetools/synopsys/installed_tools/vcs/vcs/Q-2020.03-SP2-8/etc/uvm-1.2/base/uvm_comparer.svh(382) @ 105: reporter [MISCMP] 1 Miscompare(s) for object tr@931 vs. tr@901
UVM_INFO scoreboard.sv(56) @ 105: uvm_test_top.env.sc [SCOREBOARD] DUT: BRESP=2, RDATA=0, RRESP=2
REF: BRESP=3, RDATA=0, RRESP=2
_______________________________________________________________________________________________________________________
_
UVM_INFO sequences.sv(53) @ 105: uvm_test_top.env.act.sqr@@seq [SEQ] AWADDR=3252614740,AWPROT=0,AWVALID=0,WDATA=2201891370,WSTRB=1100,WVALID=1,ARADDR=11,ARPROT=0,ARVALID=1,RREADY=1
UVM_INFO driver.sv(37) @ 115: uvm_test_top.env.act.drv [DRV] AW=3252614740/0/0 W=2201891370/1100/1 AR=11/0/1 BREADY=1 RREADY=1
UVM_INFO /fetools/synopsys/installed_tools/vcs/vcs/Q-2020.03-SP2-8/etc/uvm-1.2/base/uvm_comparer.svh(351) @ 115: reporter [MISCMP] Miscompare for tr.BRESP: lhs = 'h3 : rhs = 'h2
UVM_INFO /fetools/synopsys/installed_tools/vcs/vcs/Q-2020.03-SP2-8/etc/uvm-1.2/base/uvm_comparer.svh(382) @ 115: reporter [MISCMP] 1 Miscompare(s) for object tr@957 vs. tr@927
UVM_INFO scoreboard.sv(56) @ 115: uvm_test_top.env.sc [SCOREBOARD] DUT: BRESP=2, RDATA=0, RRESP=2
REF: BRESP=3, RDATA=0, RRESP=2
_______________________________________________________________________________________________________________________
_
UVM_INFO sequences.sv(53) @ 115: uvm_test_top.env.act.sqr@@seq [SEQ] AWADDR=59,AWPROT=0,AWVALID=1,WDATA=2201891370,WSTRB=1100,WVALID=1,ARADDR=11,ARPROT=0,ARVALID=1,RREADY=0
UVM_INFO driver.sv(37) @ 125: uvm_test_top.env.act.drv [DRV] AW=59/0/1 W=2201891370/1100/1 AR=11/0/1 BREADY=0 RREADY=0
UVM_INFO scoreboard.sv(53) @ 125: uvm_test_top.env.sc [SCOREBOARD] DUT: BRESP=2, RDATA=0, RRESP=2
REF: BRESP=2, RDATA=0, RRESP=2


UVM_INFO sequences.sv(53) @ 125: uvm_test_top.env.act.sqr@@seq [SEQ] AWADDR=1698291767,AWPROT=0,AWVALID=1,WDATA=2201891370,WSTRB=1100,WVALID=1,ARADDR=11,ARPROT=0,ARVALID=1,RREADY=1
UVM_INFO driver.sv(37) @ 135: uvm_test_top.env.act.drv [DRV] AW=1698291767/0/1 W=2201891370/1100/1 AR=11/0/1 BREADY=0 RREADY=1
UVM_INFO scoreboard.sv(53) @ 135: uvm_test_top.env.sc [SCOREBOARD] DUT: BRESP=2, RDATA=0, RRESP=2
REF: BRESP=2, RDATA=0, RRESP=2


UVM_INFO sequences.sv(53) @ 135: uvm_test_top.env.act.sqr@@seq [SEQ] AWADDR=1032467593,AWPROT=0,AWVALID=0,WDATA=2201891370,WSTRB=1100,WVALID=1,ARADDR=769509939,ARPROT=0,ARVALID=0,RREADY=0
UVM_INFO driver.sv(37) @ 145: uvm_test_top.env.act.drv [DRV] AW=1032467593/0/0 W=2201891370/1100/1 AR=769509939/0/0 BREADY=1 RREADY=0
UVM_INFO scoreboard.sv(53) @ 145: uvm_test_top.env.sc [SCOREBOARD] DUT: BRESP=2, RDATA=0, RRESP=2
REF: BRESP=2, RDATA=0, RRESP=2


UVM_INFO sequences.sv(53) @ 145: uvm_test_top.env.act.sqr@@seq [SEQ] AWADDR=3839782444,AWPROT=0,AWVALID=1,WDATA=2201891370,WSTRB=1100,WVALID=1,ARADDR=3559009425,ARPROT=0,ARVALID=0,RREADY=0
UVM_INFO driver.sv(37) @ 155: uvm_test_top.env.act.drv [DRV] AW=3839782444/0/1 W=2201891370/1100/1 AR=3559009425/0/0 BREADY=0 RREADY=0
UVM_INFO scoreboard.sv(53) @ 155: uvm_test_top.env.sc [SCOREBOARD] DUT: BRESP=2, RDATA=0, RRESP=2
REF: BRESP=2, RDATA=0, RRESP=2


UVM_INFO sequences.sv(53) @ 155: uvm_test_top.env.act.sqr@@seq [SEQ] AWADDR=3,AWPROT=0,AWVALID=0,WDATA=2201891370,WSTRB=1100,WVALID=1,ARADDR=1350589391,ARPROT=0,ARVALID=0,RREADY=0
UVM_INFO driver.sv(37) @ 165: uvm_test_top.env.act.drv [DRV] AW=3/0/0 W=2201891370/1100/1 AR=1350589391/0/0 BREADY=0 RREADY=0
UVM_INFO scoreboard.sv(53) @ 165: uvm_test_top.env.sc [SCOREBOARD] DUT: BRESP=3, RDATA=0, RRESP=2
REF: BRESP=3, RDATA=0, RRESP=2


UVM_INFO sequences.sv(53) @ 165: uvm_test_top.env.act.sqr@@seq [SEQ] AWADDR=54961479,AWPROT=0,AWVALID=1,WDATA=2201891370,WSTRB=1100,WVALID=1,ARADDR=2403053320,ARPROT=0,ARVALID=0,RREADY=1
UVM_INFO driver.sv(37) @ 175: uvm_test_top.env.act.drv [DRV] AW=54961479/0/1 W=2201891370/1100/1 AR=2403053320/0/0 BREADY=0 RREADY=1
UVM_INFO scoreboard.sv(53) @ 175: uvm_test_top.env.sc [SCOREBOARD] DUT: BRESP=3, RDATA=0, RRESP=2
REF: BRESP=3, RDATA=0, RRESP=2


UVM_INFO sequences.sv(53) @ 175: uvm_test_top.env.act.sqr@@seq [SEQ] AWADDR=38,AWPROT=0,AWVALID=1,WDATA=2201891370,WSTRB=1100,WVALID=1,ARADDR=45,ARPROT=0,ARVALID=1,RREADY=0
UVM_INFO driver.sv(37) @ 185: uvm_test_top.env.act.drv [DRV] AW=38/0/1 W=2201891370/1100/1 AR=45/0/1 BREADY=0 RREADY=0
UVM_INFO scoreboard.sv(53) @ 185: uvm_test_top.env.sc [SCOREBOARD] DUT: BRESP=3, RDATA=0, RRESP=2
REF: BRESP=3, RDATA=0, RRESP=2


UVM_INFO sequences.sv(53) @ 185: uvm_test_top.env.act.sqr@@seq [SEQ] AWADDR=39,AWPROT=0,AWVALID=0,WDATA=2201891370,WSTRB=1100,WVALID=1,ARADDR=45,ARPROT=0,ARVALID=1,RREADY=0
UVM_INFO driver.sv(37) @ 195: uvm_test_top.env.act.drv [DRV] AW=39/0/0 W=2201891370/1100/1 AR=45/0/1 BREADY=0 RREADY=0
UVM_INFO scoreboard.sv(53) @ 195: uvm_test_top.env.sc [SCOREBOARD] DUT: BRESP=3, RDATA=0, RRESP=2
REF: BRESP=3, RDATA=0, RRESP=2


UVM_INFO sequences.sv(53) @ 195: uvm_test_top.env.act.sqr@@seq [SEQ] AWADDR=4,AWPROT=0,AWVALID=0,WDATA=2201891370,WSTRB=1100,WVALID=1,ARADDR=45,ARPROT=0,ARVALID=1,RREADY=0
UVM_INFO driver.sv(37) @ 205: uvm_test_top.env.act.drv [DRV] AW=4/0/0 W=2201891370/1100/1 AR=45/0/1 BREADY=0 RREADY=0
UVM_INFO scoreboard.sv(53) @ 205: uvm_test_top.env.sc [SCOREBOARD] DUT: BRESP=3, RDATA=0, RRESP=2
REF: BRESP=3, RDATA=0, RRESP=2


UVM_INFO sequences.sv(53) @ 205: uvm_test_top.env.act.sqr@@seq [SEQ] AWADDR=34,AWPROT=0,AWVALID=0,WDATA=2201891370,WSTRB=1100,WVALID=1,ARADDR=1461585459,ARPROT=0,ARVALID=0,RREADY=0
UVM_INFO driver.sv(37) @ 215: uvm_test_top.env.act.drv [DRV] AW=34/0/0 W=2201891370/1100/1 AR=1461585459/0/0 BREADY=1 RREADY=0
UVM_INFO scoreboard.sv(53) @ 215: uvm_test_top.env.sc [SCOREBOARD] DUT: BRESP=3, RDATA=0, RRESP=2
REF: BRESP=3, RDATA=0, RRESP=2


UVM_INFO sequences.sv(53) @ 215: uvm_test_top.env.act.sqr@@seq [SEQ] AWADDR=14,AWPROT=0,AWVALID=1,WDATA=2201891370,WSTRB=1100,WVALID=1,ARADDR=1221992304,ARPROT=0,ARVALID=1,RREADY=1
UVM_INFO driver.sv(37) @ 225: uvm_test_top.env.act.drv [DRV] AW=14/0/1 W=2201891370/1100/1 AR=1221992304/0/1 BREADY=1 RREADY=1
UVM_INFO scoreboard.sv(53) @ 225: uvm_test_top.env.sc [SCOREBOARD] DUT: BRESP=3, RDATA=0, RRESP=2
REF: BRESP=3, RDATA=0, RRESP=2


UVM_INFO sequences.sv(53) @ 225: uvm_test_top.env.act.sqr@@seq [SEQ] AWADDR=2568982,AWPROT=0,AWVALID=0,WDATA=2201891370,WSTRB=1100,WVALID=1,ARADDR=47,ARPROT=0,ARVALID=0,RREADY=1
UVM_INFO driver.sv(37) @ 235: uvm_test_top.env.act.drv [DRV] AW=2568982/0/0 W=2201891370/1100/1 AR=47/0/0 BREADY=0 RREADY=1
UVM_INFO scoreboard.sv(53) @ 235: uvm_test_top.env.sc [SCOREBOARD] DUT: BRESP=3, RDATA=0, RRESP=2
REF: BRESP=3, RDATA=0, RRESP=2


UVM_INFO sequences.sv(53) @ 235: uvm_test_top.env.act.sqr@@seq [SEQ] AWADDR=35,AWPROT=0,AWVALID=1,WDATA=2201891370,WSTRB=1100,WVALID=1,ARADDR=808526692,ARPROT=0,ARVALID=1,RREADY=0
UVM_INFO driver.sv(37) @ 245: uvm_test_top.env.act.drv [DRV] AW=35/0/1 W=2201891370/1100/1 AR=808526692/0/1 BREADY=1 RREADY=0
UVM_INFO scoreboard.sv(53) @ 245: uvm_test_top.env.sc [SCOREBOARD] DUT: BRESP=3, RDATA=0, RRESP=2
REF: BRESP=3, RDATA=0, RRESP=2


UVM_INFO sequences.sv(53) @ 245: uvm_test_top.env.act.sqr@@seq [SEQ] AWADDR=35,AWPROT=0,AWVALID=1,WDATA=2201891370,WSTRB=1100,WVALID=1,ARADDR=50,ARPROT=0,ARVALID=1,RREADY=1
UVM_INFO driver.sv(37) @ 255: uvm_test_top.env.act.drv [DRV] AW=35/0/1 W=2201891370/1100/1 AR=50/0/1 BREADY=1 RREADY=1
UVM_INFO scoreboard.sv(53) @ 255: uvm_test_top.env.sc [SCOREBOARD] DUT: BRESP=3, RDATA=0, RRESP=2
REF: BRESP=3, RDATA=0, RRESP=2


UVM_INFO sequences.sv(53) @ 255: uvm_test_top.env.act.sqr@@seq [SEQ] AWADDR=2724720316,AWPROT=0,AWVALID=0,WDATA=2619443119,WSTRB=10,WVALID=0,ARADDR=575191100,ARPROT=0,ARVALID=1,RREADY=0
UVM_INFO driver.sv(37) @ 265: uvm_test_top.env.act.drv [DRV] AW=2724720316/0/0 W=2619443119/10/0 AR=575191100/0/1 BREADY=0 RREADY=0
UVM_INFO scoreboard.sv(53) @ 265: uvm_test_top.env.sc [SCOREBOARD] DUT: BRESP=3, RDATA=0, RRESP=3
REF: BRESP=3, RDATA=0, RRESP=3


UVM_INFO sequences.sv(53) @ 265: uvm_test_top.env.act.sqr@@seq [SEQ] AWADDR=2816983304,AWPROT=0,AWVALID=1,WDATA=1502891471,WSTRB=101,WVALID=1,ARADDR=47,ARPROT=0,ARVALID=0,RREADY=0
UVM_INFO driver.sv(37) @ 275: uvm_test_top.env.act.drv [DRV] AW=2816983304/0/1 W=1502891471/101/1 AR=47/0/0 BREADY=1 RREADY=0
UVM_INFO scoreboard.sv(53) @ 275: uvm_test_top.env.sc [SCOREBOARD] DUT: BRESP=2, RDATA=0, RRESP=3
REF: BRESP=2, RDATA=0, RRESP=3


UVM_INFO sequences.sv(53) @ 275: uvm_test_top.env.act.sqr@@seq [SEQ] AWADDR=3623236333,AWPROT=0,AWVALID=1,WDATA=489466698,WSTRB=1101,WVALID=1,ARADDR=3980086112,ARPROT=0,ARVALID=1,RREADY=0
UVM_INFO driver.sv(37) @ 285: uvm_test_top.env.act.drv [DRV] AW=3623236333/0/1 W=489466698/1101/1 AR=3980086112/0/1 BREADY=0 RREADY=0
UVM_INFO scoreboard.sv(53) @ 285: uvm_test_top.env.sc [SCOREBOARD] DUT: BRESP=2, RDATA=0, RRESP=3
REF: BRESP=2, RDATA=0, RRESP=3


UVM_INFO sequences.sv(53) @ 285: uvm_test_top.env.act.sqr@@seq [SEQ] AWADDR=25,AWPROT=0,AWVALID=0,WDATA=1565056993,WSTRB=1011,WVALID=1,ARADDR=3980086112,ARPROT=0,ARVALID=1,RREADY=0
UVM_INFO driver.sv(37) @ 295: uvm_test_top.env.act.drv [DRV] AW=25/0/0 W=1565056993/1011/1 AR=3980086112/0/1 BREADY=1 RREADY=0
UVM_INFO scoreboard.sv(53) @ 295: uvm_test_top.env.sc [SCOREBOARD] DUT: BRESP=2, RDATA=0, RRESP=3
REF: BRESP=2, RDATA=0, RRESP=3


UVM_INFO sequences.sv(53) @ 295: uvm_test_top.env.act.sqr@@seq [SEQ] AWADDR=5,AWPROT=0,AWVALID=1,WDATA=2261159658,WSTRB=1,WVALID=0,ARADDR=3980086112,ARPROT=0,ARVALID=1,RREADY=1
UVM_INFO driver.sv(37) @ 305: uvm_test_top.env.act.drv [DRV] AW=5/0/1 W=2261159658/1/0 AR=3980086112/0/1 BREADY=0 RREADY=1
UVM_INFO scoreboard.sv(53) @ 305: uvm_test_top.env.sc [SCOREBOARD] DUT: BRESP=2, RDATA=0, RRESP=3
REF: BRESP=2, RDATA=0, RRESP=3


UVM_INFO sequences.sv(53) @ 305: uvm_test_top.env.act.sqr@@seq [SEQ] AWADDR=5,AWPROT=0,AWVALID=1,WDATA=3645008519,WSTRB=1101,WVALID=0,ARADDR=3665600477,ARPROT=0,ARVALID=0,RREADY=1
UVM_INFO driver.sv(37) @ 315: uvm_test_top.env.act.drv [DRV] AW=5/0/1 W=3645008519/1101/0 AR=3665600477/0/0 BREADY=1 RREADY=1
UVM_INFO scoreboard.sv(53) @ 315: uvm_test_top.env.sc [SCOREBOARD] DUT: BRESP=2, RDATA=0, RRESP=3
REF: BRESP=2, RDATA=0, RRESP=3


UVM_INFO sequences.sv(53) @ 315: uvm_test_top.env.act.sqr@@seq [SEQ] AWADDR=5,AWPROT=0,AWVALID=1,WDATA=1095917034,WSTRB=0,WVALID=0,ARADDR=54,ARPROT=0,ARVALID=1,RREADY=0
UVM_INFO driver.sv(37) @ 325: uvm_test_top.env.act.drv [DRV] AW=5/0/1 W=1095917034/0/0 AR=54/0/1 BREADY=0 RREADY=0
UVM_INFO scoreboard.sv(53) @ 325: uvm_test_top.env.sc [SCOREBOARD] DUT: BRESP=2, RDATA=0, RRESP=3
REF: BRESP=2, RDATA=0, RRESP=3


UVM_INFO sequences.sv(53) @ 325: uvm_test_top.env.act.sqr@@seq [SEQ] AWADDR=5,AWPROT=0,AWVALID=1,WDATA=4027485481,WSTRB=1,WVALID=0,ARADDR=871910752,ARPROT=0,ARVALID=0,RREADY=1
UVM_INFO driver.sv(37) @ 335: uvm_test_top.env.act.drv [DRV] AW=5/0/1 W=4027485481/1/0 AR=871910752/0/0 BREADY=0 RREADY=1
UVM_INFO scoreboard.sv(53) @ 335: uvm_test_top.env.sc [SCOREBOARD] DUT: BRESP=2, RDATA=0, RRESP=3
REF: BRESP=2, RDATA=0, RRESP=3


UVM_INFO sequences.sv(53) @ 335: uvm_test_top.env.act.sqr@@seq [SEQ] AWADDR=5,AWPROT=0,AWVALID=1,WDATA=3516173475,WSTRB=1101,WVALID=0,ARADDR=33,ARPROT=0,ARVALID=1,RREADY=1
UVM_INFO driver.sv(37) @ 345: uvm_test_top.env.act.drv [DRV] AW=5/0/1 W=3516173475/1101/0 AR=33/0/1 BREADY=0 RREADY=1
UVM_INFO scoreboard.sv(53) @ 345: uvm_test_top.env.sc [SCOREBOARD] DUT: BRESP=2, RDATA=0, RRESP=2
REF: BRESP=2, RDATA=0, RRESP=2


UVM_INFO sequences.sv(53) @ 345: uvm_test_top.env.act.sqr@@seq [SEQ] AWADDR=5,AWPROT=0,AWVALID=1,WDATA=2026127439,WSTRB=1001,WVALID=0,ARADDR=2998694402,ARPROT=0,ARVALID=1,RREADY=1
UVM_INFO driver.sv(37) @ 355: uvm_test_top.env.act.drv [DRV] AW=5/0/1 W=2026127439/1001/0 AR=2998694402/0/1 BREADY=1 RREADY=1
UVM_INFO scoreboard.sv(53) @ 355: uvm_test_top.env.sc [SCOREBOARD] DUT: BRESP=2, RDATA=0, RRESP=2
REF: BRESP=2, RDATA=0, RRESP=2


UVM_INFO sequences.sv(53) @ 355: uvm_test_top.env.act.sqr@@seq [SEQ] AWADDR=5,AWPROT=0,AWVALID=1,WDATA=3185472677,WSTRB=11,WVALID=0,ARADDR=39,ARPROT=0,ARVALID=0,RREADY=0
UVM_INFO driver.sv(37) @ 365: uvm_test_top.env.act.drv [DRV] AW=5/0/1 W=3185472677/11/0 AR=39/0/0 BREADY=1 RREADY=0
UVM_INFO scoreboard.sv(53) @ 365: uvm_test_top.env.sc [SCOREBOARD] DUT: BRESP=2, RDATA=0, RRESP=2
REF: BRESP=2, RDATA=0, RRESP=2


UVM_INFO sequences.sv(53) @ 365: uvm_test_top.env.act.sqr@@seq [SEQ] AWADDR=5,AWPROT=0,AWVALID=1,WDATA=3832535170,WSTRB=1001,WVALID=0,ARADDR=45,ARPROT=0,ARVALID=0,RREADY=1
UVM_INFO driver.sv(37) @ 375: uvm_test_top.env.act.drv [DRV] AW=5/0/1 W=3832535170/1001/0 AR=45/0/0 BREADY=0 RREADY=1
UVM_INFO scoreboard.sv(53) @ 375: uvm_test_top.env.sc [SCOREBOARD] DUT: BRESP=2, RDATA=0, RRESP=3
REF: BRESP=2, RDATA=0, RRESP=3


UVM_INFO sequences.sv(53) @ 375: uvm_test_top.env.act.sqr@@seq [SEQ] AWADDR=5,AWPROT=0,AWVALID=1,WDATA=3363599317,WSTRB=1001,WVALID=1,ARADDR=2353504805,ARPROT=0,ARVALID=1,RREADY=0
UVM_INFO driver.sv(37) @ 385: uvm_test_top.env.act.drv [DRV] AW=5/0/1 W=3363599317/1001/1 AR=2353504805/0/1 BREADY=1 RREADY=0
UVM_INFO scoreboard.sv(53) @ 385: uvm_test_top.env.sc [SCOREBOARD] DUT: BRESP=2, RDATA=0, RRESP=3
REF: BRESP=2, RDATA=0, RRESP=3


UVM_INFO sequences.sv(53) @ 385: uvm_test_top.env.act.sqr@@seq [SEQ] AWADDR=5,AWPROT=0,AWVALID=1,WDATA=3363599317,WSTRB=1001,WVALID=1,ARADDR=19,ARPROT=0,ARVALID=0,RREADY=0
UVM_INFO driver.sv(37) @ 395: uvm_test_top.env.act.drv [DRV] AW=5/0/1 W=3363599317/1001/1 AR=19/0/0 BREADY=1 RREADY=0
UVM_INFO scoreboard.sv(53) @ 395: uvm_test_top.env.sc [SCOREBOARD] DUT: BRESP=2, RDATA=0, RRESP=3
REF: BRESP=2, RDATA=0, RRESP=3


UVM_INFO sequences.sv(53) @ 395: uvm_test_top.env.act.sqr@@seq [SEQ] AWADDR=5,AWPROT=0,AWVALID=1,WDATA=3363599317,WSTRB=1001,WVALID=1,ARADDR=36,ARPROT=0,ARVALID=0,RREADY=0
UVM_INFO driver.sv(37) @ 405: uvm_test_top.env.act.drv [DRV] AW=5/0/1 W=3363599317/1001/1 AR=36/0/0 BREADY=1 RREADY=0
UVM_INFO scoreboard.sv(53) @ 405: uvm_test_top.env.sc [SCOREBOARD] DUT: BRESP=2, RDATA=0, RRESP=3
REF: BRESP=2, RDATA=0, RRESP=3


UVM_INFO sequences.sv(53) @ 405: uvm_test_top.env.act.sqr@@seq [SEQ] AWADDR=5,AWPROT=0,AWVALID=1,WDATA=3363599317,WSTRB=1001,WVALID=1,ARADDR=720865694,ARPROT=0,ARVALID=0,RREADY=0
UVM_INFO driver.sv(37) @ 415: uvm_test_top.env.act.drv [DRV] AW=5/0/1 W=3363599317/1001/1 AR=720865694/0/0 BREADY=0 RREADY=0
UVM_INFO scoreboard.sv(53) @ 415: uvm_test_top.env.sc [SCOREBOARD] DUT: BRESP=2, RDATA=0, RRESP=3
REF: BRESP=2, RDATA=0, RRESP=3


UVM_INFO sequences.sv(53) @ 415: uvm_test_top.env.act.sqr@@seq [SEQ] AWADDR=5,AWPROT=0,AWVALID=1,WDATA=3363599317,WSTRB=1001,WVALID=1,ARADDR=2036805849,ARPROT=0,ARVALID=1,RREADY=0
UVM_INFO driver.sv(37) @ 425: uvm_test_top.env.act.drv [DRV] AW=5/0/1 W=3363599317/1001/1 AR=2036805849/0/1 BREADY=0 RREADY=0
UVM_INFO scoreboard.sv(53) @ 425: uvm_test_top.env.sc [SCOREBOARD] DUT: BRESP=2, RDATA=0, RRESP=3
REF: BRESP=2, RDATA=0, RRESP=3


UVM_INFO sequences.sv(53) @ 425: uvm_test_top.env.act.sqr@@seq [SEQ] AWADDR=3,AWPROT=0,AWVALID=0,WDATA=1794382595,WSTRB=1101,WVALID=0,ARADDR=29,ARPROT=0,ARVALID=0,RREADY=0
UVM_INFO driver.sv(37) @ 435: uvm_test_top.env.act.drv [DRV] AW=3/0/0 W=1794382595/1101/0 AR=29/0/0 BREADY=0 RREADY=0
UVM_INFO scoreboard.sv(53) @ 435: uvm_test_top.env.sc [SCOREBOARD] DUT: BRESP=2, RDATA=0, RRESP=3
REF: BRESP=2, RDATA=0, RRESP=3


UVM_INFO sequences.sv(53) @ 435: uvm_test_top.env.act.sqr@@seq [SEQ] AWADDR=7,AWPROT=0,AWVALID=1,WDATA=4246104671,WSTRB=1010,WVALID=0,ARADDR=61,ARPROT=0,ARVALID=1,RREADY=1
UVM_INFO driver.sv(37) @ 445: uvm_test_top.env.act.drv [DRV] AW=7/0/1 W=4246104671/1010/0 AR=61/0/1 BREADY=1 RREADY=1
UVM_INFO scoreboard.sv(53) @ 445: uvm_test_top.env.sc [SCOREBOARD] DUT: BRESP=2, RDATA=0, RRESP=3
REF: BRESP=2, RDATA=0, RRESP=3


UVM_INFO sequences.sv(53) @ 445: uvm_test_top.env.act.sqr@@seq [SEQ] AWADDR=42,AWPROT=0,AWVALID=1,WDATA=2019519827,WSTRB=1111,WVALID=1,ARADDR=57,ARPROT=0,ARVALID=0,RREADY=0
UVM_INFO driver.sv(37) @ 455: uvm_test_top.env.act.drv [DRV] AW=42/0/1 W=2019519827/1111/1 AR=57/0/0 BREADY=1 RREADY=0
UVM_INFO scoreboard.sv(53) @ 455: uvm_test_top.env.sc [SCOREBOARD] DUT: BRESP=2, RDATA=0, RRESP=3
REF: BRESP=2, RDATA=0, RRESP=3


UVM_INFO sequences.sv(53) @ 455: uvm_test_top.env.act.sqr@@seq [SEQ] AWADDR=2487710647,AWPROT=0,AWVALID=0,WDATA=3708469394,WSTRB=100,WVALID=0,ARADDR=2487674096,ARPROT=0,ARVALID=0,RREADY=1
UVM_INFO driver.sv(37) @ 465: uvm_test_top.env.act.drv [DRV] AW=2487710647/0/0 W=3708469394/100/0 AR=2487674096/0/0 BREADY=1 RREADY=1
UVM_INFO scoreboard.sv(53) @ 465: uvm_test_top.env.sc [SCOREBOARD] DUT: BRESP=2, RDATA=0, RRESP=3
REF: BRESP=2, RDATA=0, RRESP=3


UVM_INFO sequences.sv(53) @ 465: uvm_test_top.env.act.sqr@@seq [SEQ] AWADDR=201529671,AWPROT=0,AWVALID=1,WDATA=2071837124,WSTRB=1101,WVALID=0,ARADDR=2973073673,ARPROT=0,ARVALID=1,RREADY=1
UVM_INFO driver.sv(37) @ 475: uvm_test_top.env.act.drv [DRV] AW=201529671/0/1 W=2071837124/1101/0 AR=2973073673/0/1 BREADY=1 RREADY=1
UVM_INFO scoreboard.sv(53) @ 475: uvm_test_top.env.sc [SCOREBOARD] DUT: BRESP=2, RDATA=0, RRESP=3
REF: BRESP=2, RDATA=0, RRESP=3


UVM_INFO sequences.sv(53) @ 475: uvm_test_top.env.act.sqr@@seq [SEQ] AWADDR=201529671,AWPROT=0,AWVALID=1,WDATA=1758813352,WSTRB=0,WVALID=1,ARADDR=2973073673,ARPROT=0,ARVALID=1,RREADY=1
UVM_INFO driver.sv(37) @ 485: uvm_test_top.env.act.drv [DRV] AW=201529671/0/1 W=1758813352/0/1 AR=2973073673/0/1 BREADY=1 RREADY=1
UVM_INFO scoreboard.sv(53) @ 485: uvm_test_top.env.sc [SCOREBOARD] DUT: BRESP=2, RDATA=0, RRESP=3
REF: BRESP=2, RDATA=0, RRESP=3


UVM_INFO sequences.sv(53) @ 485: uvm_test_top.env.act.sqr@@seq [SEQ] AWADDR=2637610398,AWPROT=0,AWVALID=1,WDATA=4137227755,WSTRB=1110,WVALID=0,ARADDR=3428719253,ARPROT=0,ARVALID=1,RREADY=0
UVM_INFO driver.sv(37) @ 495: uvm_test_top.env.act.drv [DRV] AW=2637610398/0/1 W=4137227755/1110/0 AR=3428719253/0/1 BREADY=1 RREADY=0
UVM_INFO scoreboard.sv(53) @ 495: uvm_test_top.env.sc [SCOREBOARD] DUT: BRESP=2, RDATA=0, RRESP=3
REF: BRESP=2, RDATA=0, RRESP=3


UVM_INFO sequences.sv(53) @ 495: uvm_test_top.env.act.sqr@@seq [SEQ] AWADDR=5,AWPROT=0,AWVALID=0,WDATA=2503334839,WSTRB=1000,WVALID=0,ARADDR=3935012022,ARPROT=0,ARVALID=0,RREADY=1
UVM_INFO driver.sv(37) @ 505: uvm_test_top.env.act.drv [DRV] AW=5/0/0 W=2503334839/1000/0 AR=3935012022/0/0 BREADY=0 RREADY=1
UVM_INFO scoreboard.sv(53) @ 505: uvm_test_top.env.sc [SCOREBOARD] DUT: BRESP=2, RDATA=0, RRESP=3
REF: BRESP=2, RDATA=0, RRESP=3


UVM_INFO sequences.sv(53) @ 505: uvm_test_top.env.act.sqr@@seq [SEQ] AWADDR=975587446,AWPROT=0,AWVALID=0,WDATA=1494871251,WSTRB=111,WVALID=0,ARADDR=55,ARPROT=0,ARVALID=0,RREADY=1
UVM_INFO driver.sv(37) @ 515: uvm_test_top.env.act.drv [DRV] AW=975587446/0/0 W=1494871251/111/0 AR=55/0/0 BREADY=1 RREADY=1
UVM_INFO scoreboard.sv(53) @ 515: uvm_test_top.env.sc [SCOREBOARD] DUT: BRESP=3, RDATA=0, RRESP=3
REF: BRESP=3, RDATA=0, RRESP=3


UVM_INFO sequences.sv(53) @ 515: uvm_test_top.env.act.sqr@@seq [SEQ] AWADDR=116282134,AWPROT=0,AWVALID=1,WDATA=4134366626,WSTRB=1001,WVALID=0,ARADDR=2271221027,ARPROT=0,ARVALID=1,RREADY=0
UVM_INFO driver.sv(37) @ 525: uvm_test_top.env.act.drv [DRV] AW=116282134/0/1 W=4134366626/1001/0 AR=2271221027/0/1 BREADY=0 RREADY=0
UVM_INFO scoreboard.sv(53) @ 525: uvm_test_top.env.sc [SCOREBOARD] DUT: BRESP=3, RDATA=0, RRESP=3
REF: BRESP=3, RDATA=0, RRESP=3


UVM_INFO sequences.sv(53) @ 525: uvm_test_top.env.act.sqr@@seq [SEQ] AWADDR=43,AWPROT=0,AWVALID=1,WDATA=1592814884,WSTRB=11,WVALID=1,ARADDR=2271221027,ARPROT=0,ARVALID=1,RREADY=0
UVM_INFO driver.sv(37) @ 535: uvm_test_top.env.act.drv [DRV] AW=43/0/1 W=1592814884/11/1 AR=2271221027/0/1 BREADY=0 RREADY=0
UVM_INFO scoreboard.sv(53) @ 535: uvm_test_top.env.sc [SCOREBOARD] DUT: BRESP=3, RDATA=0, RRESP=3
REF: BRESP=3, RDATA=0, RRESP=3


UVM_INFO sequences.sv(53) @ 535: uvm_test_top.env.act.sqr@@seq [SEQ] AWADDR=19,AWPROT=0,AWVALID=1,WDATA=3201841504,WSTRB=100,WVALID=0,ARADDR=2271221027,ARPROT=0,ARVALID=1,RREADY=1
UVM_INFO driver.sv(37) @ 545: uvm_test_top.env.act.drv [DRV] AW=19/0/1 W=3201841504/100/0 AR=2271221027/0/1 BREADY=1 RREADY=1
UVM_INFO scoreboard.sv(53) @ 545: uvm_test_top.env.sc [SCOREBOARD] DUT: BRESP=3, RDATA=0, RRESP=3
REF: BRESP=3, RDATA=0, RRESP=3


UVM_INFO sequences.sv(53) @ 545: uvm_test_top.env.act.sqr@@seq [SEQ] AWADDR=19,AWPROT=0,AWVALID=1,WDATA=3637377567,WSTRB=11,WVALID=0,ARADDR=50,ARPROT=0,ARVALID=0,RREADY=0
UVM_INFO driver.sv(37) @ 555: uvm_test_top.env.act.drv [DRV] AW=19/0/1 W=3637377567/11/0 AR=50/0/0 BREADY=0 RREADY=0
UVM_INFO scoreboard.sv(53) @ 555: uvm_test_top.env.sc [SCOREBOARD] DUT: BRESP=3, RDATA=0, RRESP=3
REF: BRESP=3, RDATA=0, RRESP=3


UVM_INFO sequences.sv(53) @ 555: uvm_test_top.env.act.sqr@@seq [SEQ] AWADDR=19,AWPROT=0,AWVALID=1,WDATA=226402032,WSTRB=11,WVALID=0,ARADDR=35,ARPROT=0,ARVALID=1,RREADY=1
UVM_INFO driver.sv(37) @ 565: uvm_test_top.env.act.drv [DRV] AW=19/0/1 W=226402032/11/0 AR=35/0/1 BREADY=1 RREADY=1
UVM_INFO scoreboard.sv(53) @ 565: uvm_test_top.env.sc [SCOREBOARD] DUT: BRESP=2, RDATA=0, RRESP=3
REF: BRESP=2, RDATA=0, RRESP=3


UVM_INFO sequences.sv(53) @ 565: uvm_test_top.env.act.sqr@@seq [SEQ] AWADDR=19,AWPROT=0,AWVALID=1,WDATA=2620101352,WSTRB=1111,WVALID=0,ARADDR=2551457177,ARPROT=0,ARVALID=1,RREADY=0
UVM_INFO driver.sv(37) @ 575: uvm_test_top.env.act.drv [DRV] AW=19/0/1 W=2620101352/1111/0 AR=2551457177/0/1 BREADY=0 RREADY=0
UVM_INFO scoreboard.sv(53) @ 575: uvm_test_top.env.sc [SCOREBOARD] DUT: BRESP=2, RDATA=0, RRESP=3
REF: BRESP=2, RDATA=0, RRESP=3


UVM_INFO sequences.sv(53) @ 575: uvm_test_top.env.act.sqr@@seq [SEQ] AWADDR=19,AWPROT=0,AWVALID=1,WDATA=1061161326,WSTRB=111,WVALID=1,ARADDR=2551457177,ARPROT=0,ARVALID=1,RREADY=0
UVM_INFO driver.sv(37) @ 585: uvm_test_top.env.act.drv [DRV] AW=19/0/1 W=1061161326/111/1 AR=2551457177/0/1 BREADY=1 RREADY=0
UVM_INFO scoreboard.sv(53) @ 585: uvm_test_top.env.sc [SCOREBOARD] DUT: BRESP=2, RDATA=0, RRESP=2
REF: BRESP=2, RDATA=0, RRESP=2


UVM_INFO sequences.sv(53) @ 585: uvm_test_top.env.act.sqr@@seq [SEQ] AWADDR=19,AWPROT=0,AWVALID=1,WDATA=1054364633,WSTRB=0,WVALID=0,ARADDR=2513895746,ARPROT=0,ARVALID=0,RREADY=1
UVM_INFO driver.sv(37) @ 595: uvm_test_top.env.act.drv [DRV] AW=19/0/1 W=1054364633/0/0 AR=2513895746/0/0 BREADY=0 RREADY=1
UVM_INFO scoreboard.sv(53) @ 595: uvm_test_top.env.sc [SCOREBOARD] DUT: BRESP=2, RDATA=0, RRESP=2
REF: BRESP=2, RDATA=0, RRESP=2


UVM_INFO sequences.sv(53) @ 595: uvm_test_top.env.act.sqr@@seq [SEQ] AWADDR=19,AWPROT=0,AWVALID=1,WDATA=3978290744,WSTRB=11,WVALID=1,ARADDR=248640767,ARPROT=0,ARVALID=1,RREADY=0
UVM_INFO driver.sv(37) @ 605: uvm_test_top.env.act.drv [DRV] AW=19/0/1 W=3978290744/11/1 AR=248640767/0/1 BREADY=1 RREADY=0
UVM_INFO scoreboard.sv(53) @ 605: uvm_test_top.env.sc [SCOREBOARD] DUT: BRESP=2, RDATA=0, RRESP=2
REF: BRESP=2, RDATA=0, RRESP=2


UVM_INFO sequences.sv(53) @ 605: uvm_test_top.env.act.sqr@@seq [SEQ] AWADDR=19,AWPROT=0,AWVALID=1,WDATA=3215243216,WSTRB=1101,WVALID=1,ARADDR=3774541799,ARPROT=0,ARVALID=0,RREADY=1
UVM_INFO driver.sv(37) @ 615: uvm_test_top.env.act.drv [DRV] AW=19/0/1 W=3215243216/1101/1 AR=3774541799/0/0 BREADY=1 RREADY=1
UVM_INFO scoreboard.sv(53) @ 615: uvm_test_top.env.sc [SCOREBOARD] DUT: BRESP=2, RDATA=0, RRESP=2
REF: BRESP=2, RDATA=0, RRESP=2


UVM_INFO sequences.sv(53) @ 615: uvm_test_top.env.act.sqr@@seq [SEQ] AWADDR=19,AWPROT=0,AWVALID=1,WDATA=1213231401,WSTRB=1011,WVALID=0,ARADDR=2,ARPROT=0,ARVALID=1,RREADY=1
UVM_INFO driver.sv(37) @ 625: uvm_test_top.env.act.drv [DRV] AW=19/0/1 W=1213231401/1011/0 AR=2/0/1 BREADY=1 RREADY=1
UVM_INFO scoreboard.sv(53) @ 625: uvm_test_top.env.sc [SCOREBOARD] DUT: BRESP=2, RDATA=0, RRESP=2
REF: BRESP=2, RDATA=0, RRESP=2


UVM_INFO sequences.sv(53) @ 625: uvm_test_top.env.act.sqr@@seq [SEQ] AWADDR=19,AWPROT=0,AWVALID=1,WDATA=2630148581,WSTRB=10,WVALID=1,ARADDR=2,ARPROT=0,ARVALID=1,RREADY=0
UVM_INFO driver.sv(37) @ 635: uvm_test_top.env.act.drv [DRV] AW=19/0/1 W=2630148581/10/1 AR=2/0/1 BREADY=0 RREADY=0
UVM_INFO scoreboard.sv(53) @ 635: uvm_test_top.env.sc [SCOREBOARD] DUT: BRESP=2, RDATA=0, RRESP=2
REF: BRESP=2, RDATA=0, RRESP=2


UVM_INFO sequences.sv(53) @ 635: uvm_test_top.env.act.sqr@@seq [SEQ] AWADDR=0,AWPROT=0,AWVALID=0,WDATA=109924753,WSTRB=1110,WVALID=0,ARADDR=3771671374,ARPROT=0,ARVALID=1,RREADY=1
UVM_INFO driver.sv(37) @ 645: uvm_test_top.env.act.drv [DRV] AW=0/0/0 W=109924753/1110/0 AR=3771671374/0/1 BREADY=1 RREADY=1
UVM_INFO scoreboard.sv(53) @ 645: uvm_test_top.env.sc [SCOREBOARD] DUT: BRESP=2, RDATA=0, RRESP=2
REF: BRESP=2, RDATA=0, RRESP=2


UVM_INFO sequences.sv(53) @ 645: uvm_test_top.env.act.sqr@@seq [SEQ] AWADDR=3986817218,AWPROT=0,AWVALID=1,WDATA=2460469238,WSTRB=1111,WVALID=1,ARADDR=49,ARPROT=0,ARVALID=0,RREADY=0
UVM_INFO driver.sv(37) @ 655: uvm_test_top.env.act.drv [DRV] AW=3986817218/0/1 W=2460469238/1111/1 AR=49/0/0 BREADY=1 RREADY=0
UVM_INFO scoreboard.sv(53) @ 655: uvm_test_top.env.sc [SCOREBOARD] DUT: BRESP=2, RDATA=0, RRESP=2
REF: BRESP=2, RDATA=0, RRESP=2


UVM_INFO sequences.sv(53) @ 655: uvm_test_top.env.act.sqr@@seq [SEQ] AWADDR=26,AWPROT=0,AWVALID=0,WDATA=2853338149,WSTRB=111,WVALID=0,ARADDR=15,ARPROT=0,ARVALID=1,RREADY=1
UVM_INFO driver.sv(37) @ 665: uvm_test_top.env.act.drv [DRV] AW=26/0/0 W=2853338149/111/0 AR=15/0/1 BREADY=0 RREADY=1
UVM_INFO /fetools/synopsys/installed_tools/vcs/vcs/Q-2020.03-SP2-8/etc/uvm-1.2/base/uvm_comparer.svh(351) @ 665: reporter [MISCMP] Miscompare for tr.BRESP: lhs = 'h2 : rhs = 'h0
UVM_INFO /fetools/synopsys/installed_tools/vcs/vcs/Q-2020.03-SP2-8/etc/uvm-1.2/base/uvm_comparer.svh(382) @ 665: reporter [MISCMP] 1 Miscompare(s) for object tr@2175 vs. tr@2149
UVM_INFO scoreboard.sv(56) @ 665: uvm_test_top.env.sc [SCOREBOARD] DUT: BRESP=0, RDATA=0, RRESP=2
REF: BRESP=2, RDATA=0, RRESP=2
_______________________________________________________________________________________________________________________
_
UVM_INFO sequences.sv(53) @ 665: uvm_test_top.env.act.sqr@@seq [SEQ] AWADDR=433297710,AWPROT=0,AWVALID=1,WDATA=1911297530,WSTRB=1110,WVALID=1,ARADDR=39,ARPROT=0,ARVALID=0,RREADY=1
UVM_INFO driver.sv(37) @ 675: uvm_test_top.env.act.drv [DRV] AW=433297710/0/1 W=1911297530/1110/1 AR=39/0/0 BREADY=1 RREADY=1
UVM_INFO /fetools/synopsys/installed_tools/vcs/vcs/Q-2020.03-SP2-8/etc/uvm-1.2/base/uvm_comparer.svh(351) @ 675: reporter [MISCMP] Miscompare for tr.BRESP: lhs = 'h2 : rhs = 'h0
UVM_INFO /fetools/synopsys/installed_tools/vcs/vcs/Q-2020.03-SP2-8/etc/uvm-1.2/base/uvm_comparer.svh(382) @ 675: reporter [MISCMP] 1 Miscompare(s) for object tr@2197 vs. tr@2171
UVM_INFO scoreboard.sv(56) @ 675: uvm_test_top.env.sc [SCOREBOARD] DUT: BRESP=0, RDATA=0, RRESP=2
REF: BRESP=2, RDATA=0, RRESP=2
_______________________________________________________________________________________________________________________
_
UVM_INFO sequences.sv(53) @ 675: uvm_test_top.env.act.sqr@@seq [SEQ] AWADDR=3917853419,AWPROT=0,AWVALID=0,WDATA=85092320,WSTRB=10,WVALID=0,ARADDR=3343536402,ARPROT=0,ARVALID=0,RREADY=0
UVM_INFO driver.sv(37) @ 685: uvm_test_top.env.act.drv [DRV] AW=3917853419/0/0 W=85092320/10/0 AR=3343536402/0/0 BREADY=0 RREADY=0
UVM_INFO /fetools/synopsys/installed_tools/vcs/vcs/Q-2020.03-SP2-8/etc/uvm-1.2/base/uvm_comparer.svh(351) @ 685: reporter [MISCMP] Miscompare for tr.BRESP: lhs = 'h2 : rhs = 'h0
UVM_INFO /fetools/synopsys/installed_tools/vcs/vcs/Q-2020.03-SP2-8/etc/uvm-1.2/base/uvm_comparer.svh(382) @ 685: reporter [MISCMP] 1 Miscompare(s) for object tr@2223 vs. tr@2193
UVM_INFO scoreboard.sv(56) @ 685: uvm_test_top.env.sc [SCOREBOARD] DUT: BRESP=0, RDATA=0, RRESP=2
REF: BRESP=2, RDATA=0, RRESP=2
_______________________________________________________________________________________________________________________
_
UVM_INFO sequences.sv(53) @ 685: uvm_test_top.env.act.sqr@@seq [SEQ] AWADDR=51,AWPROT=0,AWVALID=1,WDATA=1684883154,WSTRB=10,WVALID=0,ARADDR=59,ARPROT=0,ARVALID=1,RREADY=1
UVM_INFO driver.sv(37) @ 695: uvm_test_top.env.act.drv [DRV] AW=51/0/1 W=1684883154/10/0 AR=59/0/1 BREADY=1 RREADY=1
UVM_INFO /fetools/synopsys/installed_tools/vcs/vcs/Q-2020.03-SP2-8/etc/uvm-1.2/base/uvm_comparer.svh(351) @ 695: reporter [MISCMP] Miscompare for tr.BRESP: lhs = 'h2 : rhs = 'h0
UVM_INFO /fetools/synopsys/installed_tools/vcs/vcs/Q-2020.03-SP2-8/etc/uvm-1.2/base/uvm_comparer.svh(382) @ 695: reporter [MISCMP] 1 Miscompare(s) for object tr@2249 vs. tr@2219
UVM_INFO scoreboard.sv(56) @ 695: uvm_test_top.env.sc [SCOREBOARD] DUT: BRESP=0, RDATA=0, RRESP=2
REF: BRESP=2, RDATA=0, RRESP=2
_______________________________________________________________________________________________________________________
_
UVM_INFO sequences.sv(53) @ 695: uvm_test_top.env.act.sqr@@seq [SEQ] AWADDR=51,AWPROT=0,AWVALID=1,WDATA=1545636517,WSTRB=11,WVALID=1,ARADDR=29,ARPROT=0,ARVALID=0,RREADY=1
UVM_INFO driver.sv(37) @ 705: uvm_test_top.env.act.drv [DRV] AW=51/0/1 W=1545636517/11/1 AR=29/0/0 BREADY=1 RREADY=1
UVM_INFO /fetools/synopsys/installed_tools/vcs/vcs/Q-2020.03-SP2-8/etc/uvm-1.2/base/uvm_comparer.svh(351) @ 705: reporter [MISCMP] Miscompare for tr.BRESP: lhs = 'h3 : rhs = 'h0
UVM_INFO /fetools/synopsys/installed_tools/vcs/vcs/Q-2020.03-SP2-8/etc/uvm-1.2/base/uvm_comparer.svh(382) @ 705: reporter [MISCMP] 1 Miscompare(s) for object tr@2275 vs. tr@2245
UVM_INFO scoreboard.sv(56) @ 705: uvm_test_top.env.sc [SCOREBOARD] DUT: BRESP=0, RDATA=0, RRESP=2
REF: BRESP=3, RDATA=0, RRESP=2
_______________________________________________________________________________________________________________________
_
UVM_INFO sequences.sv(53) @ 705: uvm_test_top.env.act.sqr@@seq [SEQ] AWADDR=51,AWPROT=0,AWVALID=1,WDATA=1545636517,WSTRB=11,WVALID=1,ARADDR=7,ARPROT=0,ARVALID=1,RREADY=1
UVM_INFO driver.sv(37) @ 715: uvm_test_top.env.act.drv [DRV] AW=51/0/1 W=1545636517/11/1 AR=7/0/1 BREADY=1 RREADY=1
UVM_INFO /fetools/synopsys/installed_tools/vcs/vcs/Q-2020.03-SP2-8/etc/uvm-1.2/base/uvm_comparer.svh(351) @ 715: reporter [MISCMP] Miscompare for tr.BRESP: lhs = 'h3 : rhs = 'h0
UVM_INFO /fetools/synopsys/installed_tools/vcs/vcs/Q-2020.03-SP2-8/etc/uvm-1.2/base/uvm_comparer.svh(382) @ 715: reporter [MISCMP] 1 Miscompare(s) for object tr@2301 vs. tr@2271
UVM_INFO scoreboard.sv(56) @ 715: uvm_test_top.env.sc [SCOREBOARD] DUT: BRESP=0, RDATA=0, RRESP=2
REF: BRESP=3, RDATA=0, RRESP=2
_______________________________________________________________________________________________________________________
_
UVM_INFO sequences.sv(53) @ 715: uvm_test_top.env.act.sqr@@seq [SEQ] AWADDR=51,AWPROT=0,AWVALID=1,WDATA=1545636517,WSTRB=11,WVALID=1,ARADDR=1870186211,ARPROT=0,ARVALID=0,RREADY=0
UVM_INFO driver.sv(37) @ 725: uvm_test_top.env.act.drv [DRV] AW=51/0/1 W=1545636517/11/1 AR=1870186211/0/0 BREADY=1 RREADY=0
UVM_INFO /fetools/synopsys/installed_tools/vcs/vcs/Q-2020.03-SP2-8/etc/uvm-1.2/base/uvm_comparer.svh(351) @ 725: reporter [MISCMP] Miscompare for tr.BRESP: lhs = 'h3 : rhs = 'h0
UVM_INFO /fetools/synopsys/installed_tools/vcs/vcs/Q-2020.03-SP2-8/etc/uvm-1.2/base/uvm_comparer.svh(382) @ 725: reporter [MISCMP] 1 Miscompare(s) for object tr@2327 vs. tr@2297
UVM_INFO scoreboard.sv(56) @ 725: uvm_test_top.env.sc [SCOREBOARD] DUT: BRESP=0, RDATA=0, RRESP=2
REF: BRESP=3, RDATA=0, RRESP=2
_______________________________________________________________________________________________________________________
_
UVM_INFO sequences.sv(53) @ 725: uvm_test_top.env.act.sqr@@seq [SEQ] AWADDR=51,AWPROT=0,AWVALID=1,WDATA=1545636517,WSTRB=11,WVALID=1,ARADDR=61,ARPROT=0,ARVALID=1,RREADY=0
UVM_INFO driver.sv(37) @ 735: uvm_test_top.env.act.drv [DRV] AW=51/0/1 W=1545636517/11/1 AR=61/0/1 BREADY=1 RREADY=0
UVM_INFO /fetools/synopsys/installed_tools/vcs/vcs/Q-2020.03-SP2-8/etc/uvm-1.2/base/uvm_comparer.svh(351) @ 735: reporter [MISCMP] Miscompare for tr.BRESP: lhs = 'h3 : rhs = 'h2
UVM_INFO /fetools/synopsys/installed_tools/vcs/vcs/Q-2020.03-SP2-8/etc/uvm-1.2/base/uvm_comparer.svh(382) @ 735: reporter [MISCMP] 1 Miscompare(s) for object tr@2353 vs. tr@2323
UVM_INFO scoreboard.sv(56) @ 735: uvm_test_top.env.sc [SCOREBOARD] DUT: BRESP=2, RDATA=0, RRESP=2
REF: BRESP=3, RDATA=0, RRESP=2
_______________________________________________________________________________________________________________________
_
UVM_INFO sequences.sv(53) @ 735: uvm_test_top.env.act.sqr@@seq [SEQ] AWADDR=11,AWPROT=0,AWVALID=1,WDATA=3997087832,WSTRB=111,WVALID=1,ARADDR=34,ARPROT=0,ARVALID=1,RREADY=1
UVM_INFO driver.sv(37) @ 745: uvm_test_top.env.act.drv [DRV] AW=11/0/1 W=3997087832/111/1 AR=34/0/1 BREADY=1 RREADY=1
UVM_INFO /fetools/synopsys/installed_tools/vcs/vcs/Q-2020.03-SP2-8/etc/uvm-1.2/base/uvm_comparer.svh(351) @ 745: reporter [MISCMP] Miscompare for tr.BRESP: lhs = 'h3 : rhs = 'h2
UVM_INFO /fetools/synopsys/installed_tools/vcs/vcs/Q-2020.03-SP2-8/etc/uvm-1.2/base/uvm_comparer.svh(382) @ 745: reporter [MISCMP] 1 Miscompare(s) for object tr@2379 vs. tr@2349
UVM_INFO scoreboard.sv(56) @ 745: uvm_test_top.env.sc [SCOREBOARD] DUT: BRESP=2, RDATA=0, RRESP=2
REF: BRESP=3, RDATA=0, RRESP=2
_______________________________________________________________________________________________________________________
_
UVM_INFO sequences.sv(53) @ 745: uvm_test_top.env.act.sqr@@seq [SEQ] AWADDR=49,AWPROT=0,AWVALID=0,WDATA=2578055852,WSTRB=1010,WVALID=0,ARADDR=34,ARPROT=0,ARVALID=1,RREADY=1
UVM_INFO driver.sv(37) @ 755: uvm_test_top.env.act.drv [DRV] AW=49/0/0 W=2578055852/1010/0 AR=34/0/1 BREADY=1 RREADY=1
UVM_INFO /fetools/synopsys/installed_tools/vcs/vcs/Q-2020.03-SP2-8/etc/uvm-1.2/base/uvm_comparer.svh(351) @ 755: reporter [MISCMP] Miscompare for tr.BRESP: lhs = 'h3 : rhs = 'h2
UVM_INFO /fetools/synopsys/installed_tools/vcs/vcs/Q-2020.03-SP2-8/etc/uvm-1.2/base/uvm_comparer.svh(382) @ 755: reporter [MISCMP] 1 Miscompare(s) for object tr@2405 vs. tr@2375
UVM_INFO scoreboard.sv(56) @ 755: uvm_test_top.env.sc [SCOREBOARD] DUT: BRESP=2, RDATA=0, RRESP=2
REF: BRESP=3, RDATA=0, RRESP=2
_______________________________________________________________________________________________________________________
_
UVM_INFO sequences.sv(53) @ 755: uvm_test_top.env.act.sqr@@seq [SEQ] AWADDR=63,AWPROT=0,AWVALID=0,WDATA=2739783946,WSTRB=10,WVALID=1,ARADDR=33,ARPROT=0,ARVALID=0,RREADY=1
UVM_INFO driver.sv(37) @ 765: uvm_test_top.env.act.drv [DRV] AW=63/0/0 W=2739783946/10/1 AR=33/0/0 BREADY=1 RREADY=1
UVM_INFO /fetools/synopsys/installed_tools/vcs/vcs/Q-2020.03-SP2-8/etc/uvm-1.2/base/uvm_comparer.svh(351) @ 765: reporter [MISCMP] Miscompare for tr.BRESP: lhs = 'h3 : rhs = 'h2
UVM_INFO /fetools/synopsys/installed_tools/vcs/vcs/Q-2020.03-SP2-8/etc/uvm-1.2/base/uvm_comparer.svh(382) @ 765: reporter [MISCMP] 1 Miscompare(s) for object tr@2431 vs. tr@2401
UVM_INFO scoreboard.sv(56) @ 765: uvm_test_top.env.sc [SCOREBOARD] DUT: BRESP=2, RDATA=0, RRESP=2
REF: BRESP=3, RDATA=0, RRESP=2
_______________________________________________________________________________________________________________________
_
UVM_INFO sequences.sv(53) @ 765: uvm_test_top.env.act.sqr@@seq [SEQ] AWADDR=2784433784,AWPROT=0,AWVALID=0,WDATA=3297005414,WSTRB=1011,WVALID=1,ARADDR=19,ARPROT=0,ARVALID=0,RREADY=0
UVM_INFO driver.sv(37) @ 775: uvm_test_top.env.act.drv [DRV] AW=2784433784/0/0 W=3297005414/1011/1 AR=19/0/0 BREADY=0 RREADY=0
UVM_INFO scoreboard.sv(53) @ 775: uvm_test_top.env.sc [SCOREBOARD] DUT: BRESP=2, RDATA=0, RRESP=2
REF: BRESP=2, RDATA=0, RRESP=2


UVM_INFO sequences.sv(53) @ 775: uvm_test_top.env.act.sqr@@seq [SEQ] AWADDR=2573227485,AWPROT=0,AWVALID=0,WDATA=1111136788,WSTRB=110,WVALID=1,ARADDR=1931913192,ARPROT=0,ARVALID=0,RREADY=0
UVM_INFO driver.sv(37) @ 785: uvm_test_top.env.act.drv [DRV] AW=2573227485/0/0 W=1111136788/110/1 AR=1931913192/0/0 BREADY=0 RREADY=0
UVM_INFO scoreboard.sv(53) @ 785: uvm_test_top.env.sc [SCOREBOARD] DUT: BRESP=2, RDATA=0, RRESP=2
REF: BRESP=2, RDATA=0, RRESP=2


UVM_INFO sequences.sv(53) @ 785: uvm_test_top.env.act.sqr@@seq [SEQ] AWADDR=34,AWPROT=0,AWVALID=1,WDATA=4216441447,WSTRB=0,WVALID=0,ARADDR=15,ARPROT=0,ARVALID=1,RREADY=1
UVM_INFO driver.sv(37) @ 795: uvm_test_top.env.act.drv [DRV] AW=34/0/1 W=4216441447/0/0 AR=15/0/1 BREADY=0 RREADY=1
UVM_INFO scoreboard.sv(53) @ 795: uvm_test_top.env.sc [SCOREBOARD] DUT: BRESP=2, RDATA=0, RRESP=2
REF: BRESP=2, RDATA=0, RRESP=2


UVM_INFO sequences.sv(53) @ 795: uvm_test_top.env.act.sqr@@seq [SEQ] AWADDR=34,AWPROT=0,AWVALID=1,WDATA=3035971509,WSTRB=1,WVALID=0,ARADDR=15,ARPROT=0,ARVALID=1,RREADY=0
UVM_INFO driver.sv(37) @ 805: uvm_test_top.env.act.drv [DRV] AW=34/0/1 W=3035971509/1/0 AR=15/0/1 BREADY=1 RREADY=0
UVM_INFO scoreboard.sv(53) @ 805: uvm_test_top.env.sc [SCOREBOARD] DUT: BRESP=2, RDATA=0, RRESP=2
REF: BRESP=2, RDATA=0, RRESP=2


UVM_INFO sequences.sv(53) @ 805: uvm_test_top.env.act.sqr@@seq [SEQ] AWADDR=34,AWPROT=0,AWVALID=1,WDATA=3586050993,WSTRB=1010,WVALID=1,ARADDR=15,ARPROT=0,ARVALID=1,RREADY=1
UVM_INFO driver.sv(37) @ 815: uvm_test_top.env.act.drv [DRV] AW=34/0/1 W=3586050993/1010/1 AR=15/0/1 BREADY=0 RREADY=1
UVM_INFO scoreboard.sv(53) @ 815: uvm_test_top.env.sc [SCOREBOARD] DUT: BRESP=2, RDATA=0, RRESP=2
REF: BRESP=2, RDATA=0, RRESP=2


UVM_INFO sequences.sv(53) @ 815: uvm_test_top.env.act.sqr@@seq [SEQ] AWADDR=34,AWPROT=0,AWVALID=1,WDATA=819798919,WSTRB=10,WVALID=1,ARADDR=1103174461,ARPROT=0,ARVALID=1,RREADY=1
UVM_INFO driver.sv(37) @ 825: uvm_test_top.env.act.drv [DRV] AW=34/0/1 W=819798919/10/1 AR=1103174461/0/1 BREADY=1 RREADY=1
UVM_INFO scoreboard.sv(53) @ 825: uvm_test_top.env.sc [SCOREBOARD] DUT: BRESP=2, RDATA=0, RRESP=2
REF: BRESP=2, RDATA=0, RRESP=2


UVM_INFO sequences.sv(53) @ 825: uvm_test_top.env.act.sqr@@seq [SEQ] AWADDR=34,AWPROT=0,AWVALID=1,WDATA=2458745992,WSTRB=1001,WVALID=0,ARADDR=2832615275,ARPROT=0,ARVALID=1,RREADY=0
UVM_INFO driver.sv(37) @ 835: uvm_test_top.env.act.drv [DRV] AW=34/0/1 W=2458745992/1001/0 AR=2832615275/0/1 BREADY=1 RREADY=0
UVM_INFO scoreboard.sv(53) @ 835: uvm_test_top.env.sc [SCOREBOARD] DUT: BRESP=2, RDATA=0, RRESP=2
REF: BRESP=2, RDATA=0, RRESP=2


UVM_INFO sequences.sv(53) @ 835: uvm_test_top.env.act.sqr@@seq [SEQ] AWADDR=34,AWPROT=0,AWVALID=1,WDATA=2833230364,WSTRB=1100,WVALID=1,ARADDR=25,ARPROT=0,ARVALID=1,RREADY=1
UVM_INFO driver.sv(37) @ 845: uvm_test_top.env.act.drv [DRV] AW=34/0/1 W=2833230364/1100/1 AR=25/0/1 BREADY=1 RREADY=1
UVM_INFO scoreboard.sv(53) @ 845: uvm_test_top.env.sc [SCOREBOARD] DUT: BRESP=2, RDATA=0, RRESP=2
REF: BRESP=2, RDATA=0, RRESP=2


UVM_INFO sequences.sv(53) @ 845: uvm_test_top.env.act.sqr@@seq [SEQ] AWADDR=34,AWPROT=0,AWVALID=1,WDATA=1072152970,WSTRB=1001,WVALID=1,ARADDR=25,ARPROT=0,ARVALID=1,RREADY=0
UVM_INFO driver.sv(37) @ 855: uvm_test_top.env.act.drv [DRV] AW=34/0/1 W=1072152970/1001/1 AR=25/0/1 BREADY=1 RREADY=0
UVM_INFO scoreboard.sv(53) @ 855: uvm_test_top.env.sc [SCOREBOARD] DUT: BRESP=2, RDATA=0, RRESP=3
REF: BRESP=2, RDATA=0, RRESP=3


UVM_INFO sequences.sv(53) @ 855: uvm_test_top.env.act.sqr@@seq [SEQ] AWADDR=34,AWPROT=0,AWVALID=1,WDATA=1072152970,WSTRB=1001,WVALID=1,ARADDR=4182347717,ARPROT=0,ARVALID=1,RREADY=0
UVM_INFO driver.sv(37) @ 865: uvm_test_top.env.act.drv [DRV] AW=34/0/1 W=1072152970/1001/1 AR=4182347717/0/1 BREADY=1 RREADY=0
UVM_INFO scoreboard.sv(53) @ 865: uvm_test_top.env.sc [SCOREBOARD] DUT: BRESP=2, RDATA=0, RRESP=3
REF: BRESP=2, RDATA=0, RRESP=3


UVM_INFO sequences.sv(53) @ 865: uvm_test_top.env.act.sqr@@seq [SEQ] AWADDR=34,AWPROT=0,AWVALID=1,WDATA=1072152970,WSTRB=1001,WVALID=1,ARADDR=17,ARPROT=0,ARVALID=0,RREADY=0
UVM_INFO driver.sv(37) @ 875: uvm_test_top.env.act.drv [DRV] AW=34/0/1 W=1072152970/1001/1 AR=17/0/0 BREADY=0 RREADY=0
UVM_INFO scoreboard.sv(53) @ 875: uvm_test_top.env.sc [SCOREBOARD] DUT: BRESP=2, RDATA=0, RRESP=3
REF: BRESP=2, RDATA=0, RRESP=3


UVM_INFO sequences.sv(53) @ 875: uvm_test_top.env.act.sqr@@seq [SEQ] AWADDR=34,AWPROT=0,AWVALID=1,WDATA=1072152970,WSTRB=1001,WVALID=1,ARADDR=3103962474,ARPROT=0,ARVALID=1,RREADY=0
UVM_INFO driver.sv(37) @ 885: uvm_test_top.env.act.drv [DRV] AW=34/0/1 W=1072152970/1001/1 AR=3103962474/0/1 BREADY=0 RREADY=0
UVM_INFO scoreboard.sv(53) @ 885: uvm_test_top.env.sc [SCOREBOARD] DUT: BRESP=2, RDATA=0, RRESP=3
REF: BRESP=2, RDATA=0, RRESP=3


UVM_INFO sequences.sv(53) @ 885: uvm_test_top.env.act.sqr@@seq [SEQ] AWADDR=34,AWPROT=0,AWVALID=1,WDATA=1072152970,WSTRB=1001,WVALID=1,ARADDR=3842072960,ARPROT=0,ARVALID=1,RREADY=1
UVM_INFO driver.sv(37) @ 895: uvm_test_top.env.act.drv [DRV] AW=34/0/1 W=1072152970/1001/1 AR=3842072960/0/1 BREADY=1 RREADY=1
UVM_INFO scoreboard.sv(53) @ 895: uvm_test_top.env.sc [SCOREBOARD] DUT: BRESP=2, RDATA=0, RRESP=3
REF: BRESP=2, RDATA=0, RRESP=3


UVM_INFO sequences.sv(53) @ 895: uvm_test_top.env.act.sqr@@seq [SEQ] AWADDR=34,AWPROT=0,AWVALID=1,WDATA=1072152970,WSTRB=1001,WVALID=1,ARADDR=488374970,ARPROT=0,ARVALID=1,RREADY=1
UVM_INFO driver.sv(37) @ 905: uvm_test_top.env.act.drv [DRV] AW=34/0/1 W=1072152970/1001/1 AR=488374970/0/1 BREADY=0 RREADY=1
UVM_INFO scoreboard.sv(53) @ 905: uvm_test_top.env.sc [SCOREBOARD] DUT: BRESP=2, RDATA=0, RRESP=3
REF: BRESP=2, RDATA=0, RRESP=3


UVM_INFO sequences.sv(53) @ 905: uvm_test_top.env.act.sqr@@seq [SEQ] AWADDR=34,AWPROT=0,AWVALID=1,WDATA=1072152970,WSTRB=1001,WVALID=1,ARADDR=56,ARPROT=0,ARVALID=1,RREADY=1
UVM_INFO driver.sv(37) @ 915: uvm_test_top.env.act.drv [DRV] AW=34/0/1 W=1072152970/1001/1 AR=56/0/1 BREADY=1 RREADY=1
UVM_INFO scoreboard.sv(53) @ 915: uvm_test_top.env.sc [SCOREBOARD] DUT: BRESP=2, RDATA=0, RRESP=3
REF: BRESP=2, RDATA=0, RRESP=3


UVM_INFO sequences.sv(53) @ 915: uvm_test_top.env.act.sqr@@seq [SEQ] AWADDR=34,AWPROT=0,AWVALID=1,WDATA=1072152970,WSTRB=1001,WVALID=1,ARADDR=13,ARPROT=0,ARVALID=0,RREADY=1
UVM_INFO driver.sv(37) @ 925: uvm_test_top.env.act.drv [DRV] AW=34/0/1 W=1072152970/1001/1 AR=13/0/0 BREADY=1 RREADY=1
UVM_INFO scoreboard.sv(53) @ 925: uvm_test_top.env.sc [SCOREBOARD] DUT: BRESP=2, RDATA=0, RRESP=3
REF: BRESP=2, RDATA=0, RRESP=3


UVM_INFO sequences.sv(53) @ 925: uvm_test_top.env.act.sqr@@seq [SEQ] AWADDR=34,AWPROT=0,AWVALID=1,WDATA=1072152970,WSTRB=1001,WVALID=1,ARADDR=12,ARPROT=0,ARVALID=0,RREADY=1
UVM_INFO driver.sv(37) @ 935: uvm_test_top.env.act.drv [DRV] AW=34/0/1 W=1072152970/1001/1 AR=12/0/0 BREADY=1 RREADY=1
UVM_INFO scoreboard.sv(53) @ 935: uvm_test_top.env.sc [SCOREBOARD] DUT: BRESP=2, RDATA=0, RRESP=2
REF: BRESP=2, RDATA=0, RRESP=2


UVM_INFO sequences.sv(53) @ 935: uvm_test_top.env.act.sqr@@seq [SEQ] AWADDR=34,AWPROT=0,AWVALID=1,WDATA=1072152970,WSTRB=1001,WVALID=1,ARADDR=45,ARPROT=0,ARVALID=1,RREADY=0
UVM_INFO driver.sv(37) @ 945: uvm_test_top.env.act.drv [DRV] AW=34/0/1 W=1072152970/1001/1 AR=45/0/1 BREADY=1 RREADY=0
UVM_INFO scoreboard.sv(53) @ 945: uvm_test_top.env.sc [SCOREBOARD] DUT: BRESP=2, RDATA=0, RRESP=2
REF: BRESP=2, RDATA=0, RRESP=2


UVM_INFO sequences.sv(53) @ 945: uvm_test_top.env.act.sqr@@seq [SEQ] AWADDR=34,AWPROT=0,AWVALID=1,WDATA=1072152970,WSTRB=1001,WVALID=1,ARADDR=687694558,ARPROT=0,ARVALID=0,RREADY=0
UVM_INFO driver.sv(37) @ 955: uvm_test_top.env.act.drv [DRV] AW=34/0/1 W=1072152970/1001/1 AR=687694558/0/0 BREADY=1 RREADY=0
UVM_INFO scoreboard.sv(53) @ 955: uvm_test_top.env.sc [SCOREBOARD] DUT: BRESP=2, RDATA=0, RRESP=2
REF: BRESP=2, RDATA=0, RRESP=2


UVM_INFO sequences.sv(53) @ 955: uvm_test_top.env.act.sqr@@seq [SEQ] AWADDR=34,AWPROT=0,AWVALID=1,WDATA=1072152970,WSTRB=1001,WVALID=1,ARADDR=2002514078,ARPROT=0,ARVALID=1,RREADY=0
UVM_INFO driver.sv(37) @ 965: uvm_test_top.env.act.drv [DRV] AW=34/0/1 W=1072152970/1001/1 AR=2002514078/0/1 BREADY=0 RREADY=0
UVM_INFO scoreboard.sv(53) @ 965: uvm_test_top.env.sc [SCOREBOARD] DUT: BRESP=2, RDATA=0, RRESP=2
REF: BRESP=2, RDATA=0, RRESP=2


UVM_INFO sequences.sv(53) @ 965: uvm_test_top.env.act.sqr@@seq [SEQ] AWADDR=34,AWPROT=0,AWVALID=1,WDATA=1072152970,WSTRB=1001,WVALID=1,ARADDR=841133237,ARPROT=0,ARVALID=0,RREADY=1
UVM_INFO driver.sv(37) @ 975: uvm_test_top.env.act.drv [DRV] AW=34/0/1 W=1072152970/1001/1 AR=841133237/0/0 BREADY=0 RREADY=1
UVM_INFO scoreboard.sv(53) @ 975: uvm_test_top.env.sc [SCOREBOARD] DUT: BRESP=2, RDATA=0, RRESP=2
REF: BRESP=2, RDATA=0, RRESP=2


UVM_INFO sequences.sv(53) @ 975: uvm_test_top.env.act.sqr@@seq [SEQ] AWADDR=34,AWPROT=0,AWVALID=1,WDATA=1072152970,WSTRB=1001,WVALID=1,ARADDR=2743309553,ARPROT=0,ARVALID=0,RREADY=0
UVM_INFO driver.sv(37) @ 985: uvm_test_top.env.act.drv [DRV] AW=34/0/1 W=1072152970/1001/1 AR=2743309553/0/0 BREADY=0 RREADY=0
UVM_INFO scoreboard.sv(53) @ 985: uvm_test_top.env.sc [SCOREBOARD] DUT: BRESP=2, RDATA=0, RRESP=2
REF: BRESP=2, RDATA=0, RRESP=2


UVM_INFO sequences.sv(53) @ 985: uvm_test_top.env.act.sqr@@seq [SEQ] AWADDR=34,AWPROT=0,AWVALID=1,WDATA=1072152970,WSTRB=1001,WVALID=1,ARADDR=3035000113,ARPROT=0,ARVALID=0,RREADY=1
UVM_INFO driver.sv(37) @ 995: uvm_test_top.env.act.drv [DRV] AW=34/0/1 W=1072152970/1001/1 AR=3035000113/0/0 BREADY=0 RREADY=1
UVM_INFO scoreboard.sv(53) @ 995: uvm_test_top.env.sc [SCOREBOARD] DUT: BRESP=2, RDATA=0, RRESP=2
REF: BRESP=2, RDATA=0, RRESP=2


UVM_INFO sequences.sv(53) @ 995: uvm_test_top.env.act.sqr@@seq [SEQ] AWADDR=3229042997,AWPROT=0,AWVALID=0,WDATA=671618254,WSTRB=10,WVALID=1,ARADDR=3271396545,ARPROT=0,ARVALID=0,RREADY=1
UVM_INFO driver.sv(37) @ 1005: uvm_test_top.env.act.drv [DRV] AW=3229042997/0/0 W=671618254/10/1 AR=3271396545/0/0 BREADY=1 RREADY=1
UVM_INFO scoreboard.sv(53) @ 1005: uvm_test_top.env.sc [SCOREBOARD] DUT: BRESP=2, RDATA=0, RRESP=2
REF: BRESP=2, RDATA=0, RRESP=2


UVM_INFO sequences.sv(53) @ 1005: uvm_test_top.env.act.sqr@@seq [SEQ] AWADDR=3615720493,AWPROT=0,AWVALID=1,WDATA=1666093067,WSTRB=1110,WVALID=1,ARADDR=39,ARPROT=0,ARVALID=1,RREADY=1
UVM_INFO driver.sv(37) @ 1015: uvm_test_top.env.act.drv [DRV] AW=3615720493/0/1 W=1666093067/1110/1 AR=39/0/1 BREADY=1 RREADY=1
UVM_INFO scoreboard.sv(53) @ 1015: uvm_test_top.env.sc [SCOREBOARD] DUT: BRESP=2, RDATA=0, RRESP=2
REF: BRESP=2, RDATA=0, RRESP=2


UVM_INFO sequences.sv(53) @ 1015: uvm_test_top.env.act.sqr@@seq [SEQ] AWADDR=18,AWPROT=0,AWVALID=1,WDATA=1147251841,WSTRB=1111,WVALID=0,ARADDR=39,ARPROT=0,ARVALID=1,RREADY=0
UVM_INFO driver.sv(37) @ 1025: uvm_test_top.env.act.drv [DRV] AW=18/0/1 W=1147251841/1111/0 AR=39/0/1 BREADY=0 RREADY=0
UVM_INFO scoreboard.sv(53) @ 1025: uvm_test_top.env.sc [SCOREBOARD] DUT: BRESP=2, RDATA=0, RRESP=2
REF: BRESP=2, RDATA=0, RRESP=2


UVM_INFO sequences.sv(53) @ 1025: uvm_test_top.env.act.sqr@@seq [SEQ] AWADDR=51,AWPROT=0,AWVALID=1,WDATA=3924440990,WSTRB=110,WVALID=0,ARADDR=39,ARPROT=0,ARVALID=1,RREADY=1
UVM_INFO driver.sv(37) @ 1035: uvm_test_top.env.act.drv [DRV] AW=51/0/1 W=3924440990/110/0 AR=39/0/1 BREADY=1 RREADY=1
UVM_INFO scoreboard.sv(53) @ 1035: uvm_test_top.env.sc [SCOREBOARD] DUT: BRESP=2, RDATA=0, RRESP=2
REF: BRESP=2, RDATA=0, RRESP=2


UVM_INFO sequences.sv(53) @ 1035: uvm_test_top.env.act.sqr@@seq [SEQ] AWADDR=51,AWPROT=0,AWVALID=1,WDATA=228439883,WSTRB=1,WVALID=0,ARADDR=3,ARPROT=0,ARVALID=0,RREADY=0
