Command: vcs -V -R -full64 -sverilog +v2k -debug_access+all -ntb_opts uvm-1.2 -l \
fell.log top.sv
/fetools/synopsys/installed_tools/vcs/vcs/Q-2020.03-SP2-8/linux64/bin/vcs1 -Mcc=gcc \
-Mcplusplus=g++ -Masflags= -Mcfl= -pipe -DVCSMX -DUVM_DPI_DO_TYPE_CHECK -fPIC -O \
-I/fetools/synopsys/installed_tools/vcs/vcs/Q-2020.03-SP2-8/include  -Mxllcflags= \
-Mxcflags= -pipe -DVCSMX -DUVM_DPI_DO_TYPE_CHECK -fPIC -I/fetools/synopsys/installed_tools/vcs/vcs/Q-2020.03-SP2-8/include \
-Mldflags= -rdynamic  -Mout=simv -Mamsrun="" -Mvcsaceobjs="" -Mobjects=" /fetools/synopsys/installed_tools/vcs/vcs/Q-2020.03-SP2-8/linux64/lib/libvirsim.so \
/fetools/synopsys/installed_tools/vcs/vcs/Q-2020.03-SP2-8/linux64/lib/liberrorinf.so \
/fetools/synopsys/installed_tools/vcs/vcs/Q-2020.03-SP2-8/linux64/lib/libsnpsmalloc.so \
/fetools/synopsys/installed_tools/vcs/vcs/Q-2020.03-SP2-8/linux64/lib/libvfs.so " \
-Mexternalobj= -Msaverestoreobj=/fetools/synopsys/installed_tools/vcs/vcs/Q-2020.03-SP2-8/linux64/lib/vcs_save_restore_new.o \
-Mcrt0= -Mcrtn="" -Mcsrc="/fetools/synopsys/installed_tools/vcs/vcs/Q-2020.03-SP2-8/etc/uvm-1.2/dpi/uvm_dpi.cc \
/fetools/synopsys/installed_tools/vcs/vcs/Q-2020.03-SP2-8/etc/uvm-1.2/verdi/dpi/uvm_verdi_dpi.cpp \
" -Msyslibs=/fetools/synopsys/installed_tools/verdi/verdi/Q-2020.03-SP2-8/share/PLI/VCS/LINUX64/pli.a \
-ldl  -l fell.log +define+UVM_VERDI_VIF_RECORD +define+UVM_VCS_RECORD +incdir+/fetools/synopsys/installed_tools/vcs/vcs/Q-2020.03-SP2-8/etc/uvm-1.2/vcs \
/fetools/synopsys/installed_tools/vcs/vcs/Q-2020.03-SP2-8/etc/uvm-1.2/uvm_pkg.sv \
/fetools/synopsys/installed_tools/vcs/vcs/Q-2020.03-SP2-8/etc/uvm-1.2/vcs/uvm_custom_install_vcs_recorder.sv \
+incdir+/fetools/synopsys/installed_tools/vcs/vcs/Q-2020.03-SP2-8/etc/uvm-1.2/verdi \
/fetools/synopsys/installed_tools/vcs/vcs/Q-2020.03-SP2-8/etc/uvm-1.2/verdi/uvm_custom_install_verdi_recorder.sv \
-Xvcs_run_simv=1 -V -full64 +v2k -debug_access+all +vpi +vcsd1 +itf+/fetools/synopsys/installed_tools/vcs/vcs/Q-2020.03-SP2-8/linux64/lib/vcsdp_lite.tab \
-ntb_opts uvm-1.2 +incdir+/fetools/synopsys/installed_tools/vcs/vcs/Q-2020.03-SP2-8/etc/uvm-1.2/ \
-picarchive -P /fetools/synopsys/installed_tools/verdi/verdi/Q-2020.03-SP2-8/share/PLI/VCS/LINUX64/verdi.tab \
-fsdb -sverilog -gen_obj top.sv  
                         Chronologic VCS (TM)
      Version Q-2020.03-SP2-8_Full64 -- Mon Sep 21 12:31:13 2026
               Copyright (c) 1991-2020 by Synopsys Inc.
                         ALL RIGHTS RESERVED

This program is proprietary and confidential information of Synopsys Inc.
and may be used and disclosed only as authorized in a license agreement
controlling such use and disclosure.

Parsing design file '/fetools/synopsys/installed_tools/vcs/vcs/Q-2020.03-SP2-8/etc/uvm-1.2/uvm_pkg.sv'
Parsing included file '/fetools/synopsys/installed_tools/vcs/vcs/Q-2020.03-SP2-8/etc/uvm-1.2/uvm_macros.svh'.
Parsing included file '/fetools/synopsys/installed_tools/vcs/vcs/Q-2020.03-SP2-8/etc/uvm-1.2/macros/uvm_version_defines.svh'.
Back to file '/fetools/synopsys/installed_tools/vcs/vcs/Q-2020.03-SP2-8/etc/uvm-1.2/uvm_macros.svh'.
Parsing included file '/fetools/synopsys/installed_tools/vcs/vcs/Q-2020.03-SP2-8/etc/uvm-1.2/macros/uvm_global_defines.svh'.
Back to file '/fetools/synopsys/installed_tools/vcs/vcs/Q-2020.03-SP2-8/etc/uvm-1.2/uvm_macros.svh'.
Parsing included file '/fetools/synopsys/installed_tools/vcs/vcs/Q-2020.03-SP2-8/etc/uvm-1.2/macros/snps_macros.svp'.
Back to file '/fetools/synopsys/installed_tools/vcs/vcs/Q-2020.03-SP2-8/etc/uvm-1.2/uvm_macros.svh'.
Parsing included file '/fetools/synopsys/installed_tools/vcs/vcs/Q-2020.03-SP2-8/etc/uvm-1.2/macros/uvm_message_defines.svh'.
Back to file '/fetools/synopsys/installed_tools/vcs/vcs/Q-2020.03-SP2-8/etc/uvm-1.2/uvm_macros.svh'.
Parsing included file '/fetools/synopsys/installed_tools/vcs/vcs/Q-2020.03-SP2-8/etc/uvm-1.2/macros/uvm_phase_defines.svh'.
Back to file '/fetools/synopsys/installed_tools/vcs/vcs/Q-2020.03-SP2-8/etc/uvm-1.2/uvm_macros.svh'.
Parsing included file '/fetools/synopsys/installed_tools/vcs/vcs/Q-2020.03-SP2-8/etc/uvm-1.2/macros/uvm_object_defines.svh'.
Back to file '/fetools/synopsys/installed_tools/vcs/vcs/Q-2020.03-SP2-8/etc/uvm-1.2/uvm_macros.svh'.
Parsing included file '/fetools/synopsys/installed_tools/vcs/vcs/Q-2020.03-SP2-8/etc/uvm-1.2/macros/uvm_printer_defines.svh'.
Back to file '/fetools/synopsys/installed_tools/vcs/vcs/Q-2020.03-SP2-8/etc/uvm-1.2/uvm_macros.svh'.
Parsing included file '/fetools/synopsys/installed_tools/vcs/vcs/Q-2020.03-SP2-8/etc/uvm-1.2/macros/uvm_tlm_defines.svh'.
Parsing included file '/fetools/synopsys/installed_tools/vcs/vcs/Q-2020.03-SP2-8/etc/uvm-1.2/tlm1/uvm_tlm_imps.svh'.
Back to file '/fetools/synopsys/installed_tools/vcs/vcs/Q-2020.03-SP2-8/etc/uvm-1.2/macros/uvm_tlm_defines.svh'.
Back to file '/fetools/synopsys/installed_tools/vcs/vcs/Q-2020.03-SP2-8/etc/uvm-1.2/uvm_macros.svh'.
Parsing included file '/fetools/synopsys/installed_tools/vcs/vcs/Q-2020.03-SP2-8/etc/uvm-1.2/macros/uvm_sequence_defines.svh'.
Back to file '/fetools/synopsys/installed_tools/vcs/vcs/Q-2020.03-SP2-8/etc/uvm-1.2/uvm_macros.svh'.
Parsing included file '/fetools/synopsys/installed_tools/vcs/vcs/Q-2020.03-SP2-8/etc/uvm-1.2/macros/uvm_callback_defines.svh'.
Back to file '/fetools/synopsys/installed_tools/vcs/vcs/Q-2020.03-SP2-8/etc/uvm-1.2/uvm_macros.svh'.
Parsing included file '/fetools/synopsys/installed_tools/vcs/vcs/Q-2020.03-SP2-8/etc/uvm-1.2/macros/uvm_reg_defines.svh'.
Back to file '/fetools/synopsys/installed_tools/vcs/vcs/Q-2020.03-SP2-8/etc/uvm-1.2/uvm_macros.svh'.
Parsing included file '/fetools/synopsys/installed_tools/vcs/vcs/Q-2020.03-SP2-8/etc/uvm-1.2/macros/uvm_deprecated_defines.svh'.
Back to file '/fetools/synopsys/installed_tools/vcs/vcs/Q-2020.03-SP2-8/etc/uvm-1.2/uvm_macros.svh'.
Back to file '/fetools/synopsys/installed_tools/vcs/vcs/Q-2020.03-SP2-8/etc/uvm-1.2/uvm_pkg.sv'.
Parsing included file '/fetools/synopsys/installed_tools/vcs/vcs/Q-2020.03-SP2-8/etc/uvm-1.2/dpi/uvm_dpi.svh'.
Parsing included file '/fetools/synopsys/installed_tools/vcs/vcs/Q-2020.03-SP2-8/etc/uvm-1.2/dpi/uvm_hdl.svh'.
Back to file '/fetools/synopsys/installed_tools/vcs/vcs/Q-2020.03-SP2-8/etc/uvm-1.2/dpi/uvm_dpi.svh'.
Parsing included file '/fetools/synopsys/installed_tools/vcs/vcs/Q-2020.03-SP2-8/etc/uvm-1.2/dpi/uvm_svcmd_dpi.svh'.
Back to file '/fetools/synopsys/installed_tools/vcs/vcs/Q-2020.03-SP2-8/etc/uvm-1.2/dpi/uvm_dpi.svh'.
Parsing included file '/fetools/synopsys/installed_tools/vcs/vcs/Q-2020.03-SP2-8/etc/uvm-1.2/dpi/uvm_regex.svh'.
Back to file '/fetools/synopsys/installed_tools/vcs/vcs/Q-2020.03-SP2-8/etc/uvm-1.2/dpi/uvm_dpi.svh'.
Back to file '/fetools/synopsys/installed_tools/vcs/vcs/Q-2020.03-SP2-8/etc/uvm-1.2/uvm_pkg.sv'.
Parsing included file '/fetools/synopsys/installed_tools/vcs/vcs/Q-2020.03-SP2-8/etc/uvm-1.2/base/uvm_base.svh'.
Parsing included file '/fetools/synopsys/installed_tools/vcs/vcs/Q-2020.03-SP2-8/etc/uvm-1.2/base/uvm_coreservice.svh'.
Back to file '/fetools/synopsys/installed_tools/vcs/vcs/Q-2020.03-SP2-8/etc/uvm-1.2/base/uvm_base.svh'.
Parsing included file '/fetools/synopsys/installed_tools/vcs/vcs/Q-2020.03-SP2-8/etc/uvm-1.2/base/uvm_version.svh'.
Back to file '/fetools/synopsys/installed_tools/vcs/vcs/Q-2020.03-SP2-8/etc/uvm-1.2/base/uvm_base.svh'.
Parsing included file '/fetools/synopsys/installed_tools/vcs/vcs/Q-2020.03-SP2-8/etc/uvm-1.2/base/uvm_object_globals.svh'.
Back to file '/fetools/synopsys/installed_tools/vcs/vcs/Q-2020.03-SP2-8/etc/uvm-1.2/base/uvm_base.svh'.
Parsing included file '/fetools/synopsys/installed_tools/vcs/vcs/Q-2020.03-SP2-8/etc/uvm-1.2/base/uvm_misc.svh'.
Back to file '/fetools/synopsys/installed_tools/vcs/vcs/Q-2020.03-SP2-8/etc/uvm-1.2/base/uvm_base.svh'.
Parsing included file '/fetools/synopsys/installed_tools/vcs/vcs/Q-2020.03-SP2-8/etc/uvm-1.2/base/uvm_object.svh'.
Back to file '/fetools/synopsys/installed_tools/vcs/vcs/Q-2020.03-SP2-8/etc/uvm-1.2/base/uvm_base.svh'.
Parsing included file '/fetools/synopsys/installed_tools/vcs/vcs/Q-2020.03-SP2-8/etc/uvm-1.2/base/uvm_pool.svh'.
Back to file '/fetools/synopsys/installed_tools/vcs/vcs/Q-2020.03-SP2-8/etc/uvm-1.2/base/uvm_base.svh'.
Parsing included file '/fetools/synopsys/installed_tools/vcs/vcs/Q-2020.03-SP2-8/etc/uvm-1.2/base/uvm_queue.svh'.
Back to file '/fetools/synopsys/installed_tools/vcs/vcs/Q-2020.03-SP2-8/etc/uvm-1.2/base/uvm_base.svh'.
Parsing included file '/fetools/synopsys/installed_tools/vcs/vcs/Q-2020.03-SP2-8/etc/uvm-1.2/base/uvm_factory.svh'.
Back to file '/fetools/synopsys/installed_tools/vcs/vcs/Q-2020.03-SP2-8/etc/uvm-1.2/base/uvm_base.svh'.
Parsing included file '/fetools/synopsys/installed_tools/vcs/vcs/Q-2020.03-SP2-8/etc/uvm-1.2/base/uvm_registry.svh'.
Back to file '/fetools/synopsys/installed_tools/vcs/vcs/Q-2020.03-SP2-8/etc/uvm-1.2/base/uvm_base.svh'.
Parsing included file '/fetools/synopsys/installed_tools/vcs/vcs/Q-2020.03-SP2-8/etc/uvm-1.2/base/uvm_spell_chkr.svh'.
Back to file '/fetools/synopsys/installed_tools/vcs/vcs/Q-2020.03-SP2-8/etc/uvm-1.2/base/uvm_base.svh'.
Parsing included file '/fetools/synopsys/installed_tools/vcs/vcs/Q-2020.03-SP2-8/etc/uvm-1.2/base/uvm_resource.svh'.
Back to file '/fetools/synopsys/installed_tools/vcs/vcs/Q-2020.03-SP2-8/etc/uvm-1.2/base/uvm_base.svh'.
Parsing included file '/fetools/synopsys/installed_tools/vcs/vcs/Q-2020.03-SP2-8/etc/uvm-1.2/base/uvm_resource_specializations.svh'.
Back to file '/fetools/synopsys/installed_tools/vcs/vcs/Q-2020.03-SP2-8/etc/uvm-1.2/base/uvm_base.svh'.
Parsing included file '/fetools/synopsys/installed_tools/vcs/vcs/Q-2020.03-SP2-8/etc/uvm-1.2/base/uvm_resource_db.svh'.
Back to file '/fetools/synopsys/installed_tools/vcs/vcs/Q-2020.03-SP2-8/etc/uvm-1.2/base/uvm_base.svh'.
Parsing included file '/fetools/synopsys/installed_tools/vcs/vcs/Q-2020.03-SP2-8/etc/uvm-1.2/base/uvm_config_db.svh'.
Back to file '/fetools/synopsys/installed_tools/vcs/vcs/Q-2020.03-SP2-8/etc/uvm-1.2/base/uvm_base.svh'.
Parsing included file '/fetools/synopsys/installed_tools/vcs/vcs/Q-2020.03-SP2-8/etc/uvm-1.2/base/uvm_printer.svh'.
Back to file '/fetools/synopsys/installed_tools/vcs/vcs/Q-2020.03-SP2-8/etc/uvm-1.2/base/uvm_base.svh'.
Parsing included file '/fetools/synopsys/installed_tools/vcs/vcs/Q-2020.03-SP2-8/etc/uvm-1.2/base/uvm_comparer.svh'.
Back to file '/fetools/synopsys/installed_tools/vcs/vcs/Q-2020.03-SP2-8/etc/uvm-1.2/base/uvm_base.svh'.
Parsing included file '/fetools/synopsys/installed_tools/vcs/vcs/Q-2020.03-SP2-8/etc/uvm-1.2/base/uvm_packer.svh'.
Back to file '/fetools/synopsys/installed_tools/vcs/vcs/Q-2020.03-SP2-8/etc/uvm-1.2/base/uvm_base.svh'.
Parsing included file '/fetools/synopsys/installed_tools/vcs/vcs/Q-2020.03-SP2-8/etc/uvm-1.2/base/uvm_links.svh'.
Back to file '/fetools/synopsys/installed_tools/vcs/vcs/Q-2020.03-SP2-8/etc/uvm-1.2/base/uvm_base.svh'.
Parsing included file '/fetools/synopsys/installed_tools/vcs/vcs/Q-2020.03-SP2-8/etc/uvm-1.2/base/uvm_tr_database.svh'.
Back to file '/fetools/synopsys/installed_tools/vcs/vcs/Q-2020.03-SP2-8/etc/uvm-1.2/base/uvm_base.svh'.
Parsing included file '/fetools/synopsys/installed_tools/vcs/vcs/Q-2020.03-SP2-8/etc/uvm-1.2/base/uvm_tr_stream.svh'.
Back to file '/fetools/synopsys/installed_tools/vcs/vcs/Q-2020.03-SP2-8/etc/uvm-1.2/base/uvm_base.svh'.
Parsing included file '/fetools/synopsys/installed_tools/vcs/vcs/Q-2020.03-SP2-8/etc/uvm-1.2/base/uvm_recorder.svh'.
Back to file '/fetools/synopsys/installed_tools/vcs/vcs/Q-2020.03-SP2-8/etc/uvm-1.2/base/uvm_base.svh'.
Parsing included file '/fetools/synopsys/installed_tools/vcs/vcs/Q-2020.03-SP2-8/etc/uvm-1.2/base/uvm_event_callback.svh'.
Back to file '/fetools/synopsys/installed_tools/vcs/vcs/Q-2020.03-SP2-8/etc/uvm-1.2/base/uvm_base.svh'.
Parsing included file '/fetools/synopsys/installed_tools/vcs/vcs/Q-2020.03-SP2-8/etc/uvm-1.2/base/uvm_event.svh'.
Back to file '/fetools/synopsys/installed_tools/vcs/vcs/Q-2020.03-SP2-8/etc/uvm-1.2/base/uvm_base.svh'.
Parsing included file '/fetools/synopsys/installed_tools/vcs/vcs/Q-2020.03-SP2-8/etc/uvm-1.2/base/uvm_barrier.svh'.
Back to file '/fetools/synopsys/installed_tools/vcs/vcs/Q-2020.03-SP2-8/etc/uvm-1.2/base/uvm_base.svh'.
Parsing included file '/fetools/synopsys/installed_tools/vcs/vcs/Q-2020.03-SP2-8/etc/uvm-1.2/base/uvm_callback.svh'.
Parsing included file '/fetools/synopsys/installed_tools/vcs/vcs/Q-2020.03-SP2-8/etc/uvm-1.2/uvm_macros.svh'.
Back to file '/fetools/synopsys/installed_tools/vcs/vcs/Q-2020.03-SP2-8/etc/uvm-1.2/base/uvm_callback.svh'.
Back to file '/fetools/synopsys/installed_tools/vcs/vcs/Q-2020.03-SP2-8/etc/uvm-1.2/base/uvm_base.svh'.
Parsing included file '/fetools/synopsys/installed_tools/vcs/vcs/Q-2020.03-SP2-8/etc/uvm-1.2/base/uvm_report_message.svh'.
Back to file '/fetools/synopsys/installed_tools/vcs/vcs/Q-2020.03-SP2-8/etc/uvm-1.2/base/uvm_base.svh'.
Parsing included file '/fetools/synopsys/installed_tools/vcs/vcs/Q-2020.03-SP2-8/etc/uvm-1.2/base/uvm_report_catcher.svh'.
Back to file '/fetools/synopsys/installed_tools/vcs/vcs/Q-2020.03-SP2-8/etc/uvm-1.2/base/uvm_base.svh'.
Parsing included file '/fetools/synopsys/installed_tools/vcs/vcs/Q-2020.03-SP2-8/etc/uvm-1.2/base/uvm_report_server.svh'.
Back to file '/fetools/synopsys/installed_tools/vcs/vcs/Q-2020.03-SP2-8/etc/uvm-1.2/base/uvm_base.svh'.
Parsing included file '/fetools/synopsys/installed_tools/vcs/vcs/Q-2020.03-SP2-8/etc/uvm-1.2/base/uvm_report_handler.svh'.
Back to file '/fetools/synopsys/installed_tools/vcs/vcs/Q-2020.03-SP2-8/etc/uvm-1.2/base/uvm_base.svh'.
Parsing included file '/fetools/synopsys/installed_tools/vcs/vcs/Q-2020.03-SP2-8/etc/uvm-1.2/base/uvm_report_object.svh'.
Back to file '/fetools/synopsys/installed_tools/vcs/vcs/Q-2020.03-SP2-8/etc/uvm-1.2/base/uvm_base.svh'.
Parsing included file '/fetools/synopsys/installed_tools/vcs/vcs/Q-2020.03-SP2-8/etc/uvm-1.2/base/uvm_transaction.svh'.
Back to file '/fetools/synopsys/installed_tools/vcs/vcs/Q-2020.03-SP2-8/etc/uvm-1.2/base/uvm_base.svh'.
Parsing included file '/fetools/synopsys/installed_tools/vcs/vcs/Q-2020.03-SP2-8/etc/uvm-1.2/base/uvm_phase.svh'.
Back to file '/fetools/synopsys/installed_tools/vcs/vcs/Q-2020.03-SP2-8/etc/uvm-1.2/base/uvm_base.svh'.
Parsing included file '/fetools/synopsys/installed_tools/vcs/vcs/Q-2020.03-SP2-8/etc/uvm-1.2/base/uvm_domain.svh'.
Back to file '/fetools/synopsys/installed_tools/vcs/vcs/Q-2020.03-SP2-8/etc/uvm-1.2/base/uvm_base.svh'.
Parsing included file '/fetools/synopsys/installed_tools/vcs/vcs/Q-2020.03-SP2-8/etc/uvm-1.2/base/uvm_bottomup_phase.svh'.
Back to file '/fetools/synopsys/installed_tools/vcs/vcs/Q-2020.03-SP2-8/etc/uvm-1.2/base/uvm_base.svh'.
Parsing included file '/fetools/synopsys/installed_tools/vcs/vcs/Q-2020.03-SP2-8/etc/uvm-1.2/base/uvm_topdown_phase.svh'.
Back to file '/fetools/synopsys/installed_tools/vcs/vcs/Q-2020.03-SP2-8/etc/uvm-1.2/base/uvm_base.svh'.
Parsing included file '/fetools/synopsys/installed_tools/vcs/vcs/Q-2020.03-SP2-8/etc/uvm-1.2/base/uvm_task_phase.svh'.
Back to file '/fetools/synopsys/installed_tools/vcs/vcs/Q-2020.03-SP2-8/etc/uvm-1.2/base/uvm_base.svh'.
Parsing included file '/fetools/synopsys/installed_tools/vcs/vcs/Q-2020.03-SP2-8/etc/uvm-1.2/base/uvm_common_phases.svh'.
Back to file '/fetools/synopsys/installed_tools/vcs/vcs/Q-2020.03-SP2-8/etc/uvm-1.2/base/uvm_base.svh'.
Parsing included file '/fetools/synopsys/installed_tools/vcs/vcs/Q-2020.03-SP2-8/etc/uvm-1.2/base/uvm_runtime_phases.svh'.
Back to file '/fetools/synopsys/installed_tools/vcs/vcs/Q-2020.03-SP2-8/etc/uvm-1.2/base/uvm_base.svh'.
Parsing included file '/fetools/synopsys/installed_tools/vcs/vcs/Q-2020.03-SP2-8/etc/uvm-1.2/base/uvm_component.svh'.
Parsing included file '/fetools/synopsys/installed_tools/vcs/vcs/Q-2020.03-SP2-8/etc/uvm-1.2/base/uvm_root.svh'.
Back to file '/fetools/synopsys/installed_tools/vcs/vcs/Q-2020.03-SP2-8/etc/uvm-1.2/base/uvm_component.svh'.
Back to file '/fetools/synopsys/installed_tools/vcs/vcs/Q-2020.03-SP2-8/etc/uvm-1.2/base/uvm_base.svh'.
Parsing included file '/fetools/synopsys/installed_tools/vcs/vcs/Q-2020.03-SP2-8/etc/uvm-1.2/base/uvm_objection.svh'.
Back to file '/fetools/synopsys/installed_tools/vcs/vcs/Q-2020.03-SP2-8/etc/uvm-1.2/base/uvm_base.svh'.
Parsing included file '/fetools/synopsys/installed_tools/vcs/vcs/Q-2020.03-SP2-8/etc/uvm-1.2/base/uvm_heartbeat.svh'.
Back to file '/fetools/synopsys/installed_tools/vcs/vcs/Q-2020.03-SP2-8/etc/uvm-1.2/base/uvm_base.svh'.
Parsing included file '/fetools/synopsys/installed_tools/vcs/vcs/Q-2020.03-SP2-8/etc/uvm-1.2/base/uvm_globals.svh'.
Back to file '/fetools/synopsys/installed_tools/vcs/vcs/Q-2020.03-SP2-8/etc/uvm-1.2/base/uvm_base.svh'.
Parsing included file '/fetools/synopsys/installed_tools/vcs/vcs/Q-2020.03-SP2-8/etc/uvm-1.2/base/uvm_cmdline_processor.svh'.
Back to file '/fetools/synopsys/installed_tools/vcs/vcs/Q-2020.03-SP2-8/etc/uvm-1.2/base/uvm_base.svh'.
Parsing included file '/fetools/synopsys/installed_tools/vcs/vcs/Q-2020.03-SP2-8/etc/uvm-1.2/base/uvm_traversal.svh'.
Back to file '/fetools/synopsys/installed_tools/vcs/vcs/Q-2020.03-SP2-8/etc/uvm-1.2/base/uvm_base.svh'.
Back to file '/fetools/synopsys/installed_tools/vcs/vcs/Q-2020.03-SP2-8/etc/uvm-1.2/uvm_pkg.sv'.
Parsing included file '/fetools/synopsys/installed_tools/vcs/vcs/Q-2020.03-SP2-8/etc/uvm-1.2/dap/uvm_dap.svh'.
Parsing included file '/fetools/synopsys/installed_tools/vcs/vcs/Q-2020.03-SP2-8/etc/uvm-1.2/dap/uvm_set_get_dap_base.svh'.
Back to file '/fetools/synopsys/installed_tools/vcs/vcs/Q-2020.03-SP2-8/etc/uvm-1.2/dap/uvm_dap.svh'.
Parsing included file '/fetools/synopsys/installed_tools/vcs/vcs/Q-2020.03-SP2-8/etc/uvm-1.2/dap/uvm_simple_lock_dap.svh'.
Back to file '/fetools/synopsys/installed_tools/vcs/vcs/Q-2020.03-SP2-8/etc/uvm-1.2/dap/uvm_dap.svh'.
Parsing included file '/fetools/synopsys/installed_tools/vcs/vcs/Q-2020.03-SP2-8/etc/uvm-1.2/dap/uvm_get_to_lock_dap.svh'.
Back to file '/fetools/synopsys/installed_tools/vcs/vcs/Q-2020.03-SP2-8/etc/uvm-1.2/dap/uvm_dap.svh'.
Parsing included file '/fetools/synopsys/installed_tools/vcs/vcs/Q-2020.03-SP2-8/etc/uvm-1.2/dap/uvm_set_before_get_dap.svh'.
Back to file '/fetools/synopsys/installed_tools/vcs/vcs/Q-2020.03-SP2-8/etc/uvm-1.2/dap/uvm_dap.svh'.
Back to file '/fetools/synopsys/installed_tools/vcs/vcs/Q-2020.03-SP2-8/etc/uvm-1.2/uvm_pkg.sv'.
Parsing included file '/fetools/synopsys/installed_tools/vcs/vcs/Q-2020.03-SP2-8/etc/uvm-1.2/tlm1/uvm_tlm.svh'.
Parsing included file '/fetools/synopsys/installed_tools/vcs/vcs/Q-2020.03-SP2-8/etc/uvm-1.2/tlm1/uvm_tlm_ifs.svh'.
Back to file '/fetools/synopsys/installed_tools/vcs/vcs/Q-2020.03-SP2-8/etc/uvm-1.2/tlm1/uvm_tlm.svh'.
Parsing included file '/fetools/synopsys/installed_tools/vcs/vcs/Q-2020.03-SP2-8/etc/uvm-1.2/tlm1/uvm_sqr_ifs.svh'.
Back to file '/fetools/synopsys/installed_tools/vcs/vcs/Q-2020.03-SP2-8/etc/uvm-1.2/tlm1/uvm_tlm.svh'.
Parsing included file '/fetools/synopsys/installed_tools/vcs/vcs/Q-2020.03-SP2-8/etc/uvm-1.2/base/uvm_port_base.svh'.
Back to file '/fetools/synopsys/installed_tools/vcs/vcs/Q-2020.03-SP2-8/etc/uvm-1.2/tlm1/uvm_tlm.svh'.
Parsing included file '/fetools/synopsys/installed_tools/vcs/vcs/Q-2020.03-SP2-8/etc/uvm-1.2/tlm1/uvm_tlm_imps.svh'.
Back to file '/fetools/synopsys/installed_tools/vcs/vcs/Q-2020.03-SP2-8/etc/uvm-1.2/tlm1/uvm_tlm.svh'.
Parsing included file '/fetools/synopsys/installed_tools/vcs/vcs/Q-2020.03-SP2-8/etc/uvm-1.2/tlm1/uvm_imps.svh'.
Back to file '/fetools/synopsys/installed_tools/vcs/vcs/Q-2020.03-SP2-8/etc/uvm-1.2/tlm1/uvm_tlm.svh'.
Parsing included file '/fetools/synopsys/installed_tools/vcs/vcs/Q-2020.03-SP2-8/etc/uvm-1.2/tlm1/uvm_ports.svh'.
Back to file '/fetools/synopsys/installed_tools/vcs/vcs/Q-2020.03-SP2-8/etc/uvm-1.2/tlm1/uvm_tlm.svh'.
Parsing included file '/fetools/synopsys/installed_tools/vcs/vcs/Q-2020.03-SP2-8/etc/uvm-1.2/tlm1/uvm_exports.svh'.
Back to file '/fetools/synopsys/installed_tools/vcs/vcs/Q-2020.03-SP2-8/etc/uvm-1.2/tlm1/uvm_tlm.svh'.
Parsing included file '/fetools/synopsys/installed_tools/vcs/vcs/Q-2020.03-SP2-8/etc/uvm-1.2/tlm1/uvm_analysis_port.svh'.
Back to file '/fetools/synopsys/installed_tools/vcs/vcs/Q-2020.03-SP2-8/etc/uvm-1.2/tlm1/uvm_tlm.svh'.
Parsing included file '/fetools/synopsys/installed_tools/vcs/vcs/Q-2020.03-SP2-8/etc/uvm-1.2/tlm1/uvm_tlm_fifo_base.svh'.
Back to file '/fetools/synopsys/installed_tools/vcs/vcs/Q-2020.03-SP2-8/etc/uvm-1.2/tlm1/uvm_tlm.svh'.
Parsing included file '/fetools/synopsys/installed_tools/vcs/vcs/Q-2020.03-SP2-8/etc/uvm-1.2/tlm1/uvm_tlm_fifos.svh'.
Back to file '/fetools/synopsys/installed_tools/vcs/vcs/Q-2020.03-SP2-8/etc/uvm-1.2/tlm1/uvm_tlm.svh'.
Parsing included file '/fetools/synopsys/installed_tools/vcs/vcs/Q-2020.03-SP2-8/etc/uvm-1.2/tlm1/uvm_tlm_req_rsp.svh'.
Back to file '/fetools/synopsys/installed_tools/vcs/vcs/Q-2020.03-SP2-8/etc/uvm-1.2/tlm1/uvm_tlm.svh'.
Parsing included file '/fetools/synopsys/installed_tools/vcs/vcs/Q-2020.03-SP2-8/etc/uvm-1.2/tlm1/uvm_sqr_connections.svh'.
Back to file '/fetools/synopsys/installed_tools/vcs/vcs/Q-2020.03-SP2-8/etc/uvm-1.2/tlm1/uvm_tlm.svh'.
Back to file '/fetools/synopsys/installed_tools/vcs/vcs/Q-2020.03-SP2-8/etc/uvm-1.2/uvm_pkg.sv'.
Parsing included file '/fetools/synopsys/installed_tools/vcs/vcs/Q-2020.03-SP2-8/etc/uvm-1.2/comps/uvm_comps.svh'.
Parsing included file '/fetools/synopsys/installed_tools/vcs/vcs/Q-2020.03-SP2-8/etc/uvm-1.2/comps/uvm_pair.svh'.
Back to file '/fetools/synopsys/installed_tools/vcs/vcs/Q-2020.03-SP2-8/etc/uvm-1.2/comps/uvm_comps.svh'.
Parsing included file '/fetools/synopsys/installed_tools/vcs/vcs/Q-2020.03-SP2-8/etc/uvm-1.2/comps/uvm_policies.svh'.
Back to file '/fetools/synopsys/installed_tools/vcs/vcs/Q-2020.03-SP2-8/etc/uvm-1.2/comps/uvm_comps.svh'.
Parsing included file '/fetools/synopsys/installed_tools/vcs/vcs/Q-2020.03-SP2-8/etc/uvm-1.2/comps/uvm_in_order_comparator.svh'.
Back to file '/fetools/synopsys/installed_tools/vcs/vcs/Q-2020.03-SP2-8/etc/uvm-1.2/comps/uvm_comps.svh'.
Parsing included file '/fetools/synopsys/installed_tools/vcs/vcs/Q-2020.03-SP2-8/etc/uvm-1.2/comps/uvm_algorithmic_comparator.svh'.
Back to file '/fetools/synopsys/installed_tools/vcs/vcs/Q-2020.03-SP2-8/etc/uvm-1.2/comps/uvm_comps.svh'.
Parsing included file '/fetools/synopsys/installed_tools/vcs/vcs/Q-2020.03-SP2-8/etc/uvm-1.2/comps/uvm_random_stimulus.svh'.
Back to file '/fetools/synopsys/installed_tools/vcs/vcs/Q-2020.03-SP2-8/etc/uvm-1.2/comps/uvm_comps.svh'.
Parsing included file '/fetools/synopsys/installed_tools/vcs/vcs/Q-2020.03-SP2-8/etc/uvm-1.2/comps/uvm_subscriber.svh'.
Back to file '/fetools/synopsys/installed_tools/vcs/vcs/Q-2020.03-SP2-8/etc/uvm-1.2/comps/uvm_comps.svh'.
Parsing included file '/fetools/synopsys/installed_tools/vcs/vcs/Q-2020.03-SP2-8/etc/uvm-1.2/comps/uvm_monitor.svh'.
Back to file '/fetools/synopsys/installed_tools/vcs/vcs/Q-2020.03-SP2-8/etc/uvm-1.2/comps/uvm_comps.svh'.
Parsing included file '/fetools/synopsys/installed_tools/vcs/vcs/Q-2020.03-SP2-8/etc/uvm-1.2/comps/uvm_driver.svh'.
Back to file '/fetools/synopsys/installed_tools/vcs/vcs/Q-2020.03-SP2-8/etc/uvm-1.2/comps/uvm_comps.svh'.
Parsing included file '/fetools/synopsys/installed_tools/vcs/vcs/Q-2020.03-SP2-8/etc/uvm-1.2/comps/uvm_push_driver.svh'.
Back to file '/fetools/synopsys/installed_tools/vcs/vcs/Q-2020.03-SP2-8/etc/uvm-1.2/comps/uvm_comps.svh'.
Parsing included file '/fetools/synopsys/installed_tools/vcs/vcs/Q-2020.03-SP2-8/etc/uvm-1.2/comps/uvm_scoreboard.svh'.
Back to file '/fetools/synopsys/installed_tools/vcs/vcs/Q-2020.03-SP2-8/etc/uvm-1.2/comps/uvm_comps.svh'.
Parsing included file '/fetools/synopsys/installed_tools/vcs/vcs/Q-2020.03-SP2-8/etc/uvm-1.2/comps/uvm_agent.svh'.
Back to file '/fetools/synopsys/installed_tools/vcs/vcs/Q-2020.03-SP2-8/etc/uvm-1.2/comps/uvm_comps.svh'.
Parsing included file '/fetools/synopsys/installed_tools/vcs/vcs/Q-2020.03-SP2-8/etc/uvm-1.2/comps/uvm_env.svh'.
Back to file '/fetools/synopsys/installed_tools/vcs/vcs/Q-2020.03-SP2-8/etc/uvm-1.2/comps/uvm_comps.svh'.
Parsing included file '/fetools/synopsys/installed_tools/vcs/vcs/Q-2020.03-SP2-8/etc/uvm-1.2/comps/uvm_test.svh'.
Back to file '/fetools/synopsys/installed_tools/vcs/vcs/Q-2020.03-SP2-8/etc/uvm-1.2/comps/uvm_comps.svh'.
Back to file '/fetools/synopsys/installed_tools/vcs/vcs/Q-2020.03-SP2-8/etc/uvm-1.2/uvm_pkg.sv'.
Parsing included file '/fetools/synopsys/installed_tools/vcs/vcs/Q-2020.03-SP2-8/etc/uvm-1.2/seq/uvm_seq.svh'.
Parsing included file '/fetools/synopsys/installed_tools/vcs/vcs/Q-2020.03-SP2-8/etc/uvm-1.2/seq/uvm_sequence_item.svh'.
Back to file '/fetools/synopsys/installed_tools/vcs/vcs/Q-2020.03-SP2-8/etc/uvm-1.2/seq/uvm_seq.svh'.
Parsing included file '/fetools/synopsys/installed_tools/vcs/vcs/Q-2020.03-SP2-8/etc/uvm-1.2/seq/uvm_sequencer_base.svh'.
Back to file '/fetools/synopsys/installed_tools/vcs/vcs/Q-2020.03-SP2-8/etc/uvm-1.2/seq/uvm_seq.svh'.
Parsing included file '/fetools/synopsys/installed_tools/vcs/vcs/Q-2020.03-SP2-8/etc/uvm-1.2/seq/uvm_sequencer_analysis_fifo.svh'.
Back to file '/fetools/synopsys/installed_tools/vcs/vcs/Q-2020.03-SP2-8/etc/uvm-1.2/seq/uvm_seq.svh'.
Parsing included file '/fetools/synopsys/installed_tools/vcs/vcs/Q-2020.03-SP2-8/etc/uvm-1.2/seq/uvm_sequencer_param_base.svh'.
Back to file '/fetools/synopsys/installed_tools/vcs/vcs/Q-2020.03-SP2-8/etc/uvm-1.2/seq/uvm_seq.svh'.
Parsing included file '/fetools/synopsys/installed_tools/vcs/vcs/Q-2020.03-SP2-8/etc/uvm-1.2/seq/uvm_sequencer.svh'.
Back to file '/fetools/synopsys/installed_tools/vcs/vcs/Q-2020.03-SP2-8/etc/uvm-1.2/seq/uvm_seq.svh'.
Parsing included file '/fetools/synopsys/installed_tools/vcs/vcs/Q-2020.03-SP2-8/etc/uvm-1.2/seq/uvm_push_sequencer.svh'.
Back to file '/fetools/synopsys/installed_tools/vcs/vcs/Q-2020.03-SP2-8/etc/uvm-1.2/seq/uvm_seq.svh'.
Parsing included file '/fetools/synopsys/installed_tools/vcs/vcs/Q-2020.03-SP2-8/etc/uvm-1.2/seq/uvm_sequence_base.svh'.
Back to file '/fetools/synopsys/installed_tools/vcs/vcs/Q-2020.03-SP2-8/etc/uvm-1.2/seq/uvm_seq.svh'.
Parsing included file '/fetools/synopsys/installed_tools/vcs/vcs/Q-2020.03-SP2-8/etc/uvm-1.2/seq/uvm_sequence.svh'.
Back to file '/fetools/synopsys/installed_tools/vcs/vcs/Q-2020.03-SP2-8/etc/uvm-1.2/seq/uvm_seq.svh'.
Parsing included file '/fetools/synopsys/installed_tools/vcs/vcs/Q-2020.03-SP2-8/etc/uvm-1.2/seq/uvm_sequence_library.svh'.
Back to file '/fetools/synopsys/installed_tools/vcs/vcs/Q-2020.03-SP2-8/etc/uvm-1.2/seq/uvm_seq.svh'.
Parsing included file '/fetools/synopsys/installed_tools/vcs/vcs/Q-2020.03-SP2-8/etc/uvm-1.2/seq/uvm_sequence_builtin.svh'.
Back to file '/fetools/synopsys/installed_tools/vcs/vcs/Q-2020.03-SP2-8/etc/uvm-1.2/seq/uvm_seq.svh'.
Back to file '/fetools/synopsys/installed_tools/vcs/vcs/Q-2020.03-SP2-8/etc/uvm-1.2/uvm_pkg.sv'.
Parsing included file '/fetools/synopsys/installed_tools/vcs/vcs/Q-2020.03-SP2-8/etc/uvm-1.2/tlm2/uvm_tlm2.svh'.
Parsing included file '/fetools/synopsys/installed_tools/vcs/vcs/Q-2020.03-SP2-8/etc/uvm-1.2/tlm2/uvm_tlm2_defines.svh'.
Back to file '/fetools/synopsys/installed_tools/vcs/vcs/Q-2020.03-SP2-8/etc/uvm-1.2/tlm2/uvm_tlm2.svh'.
Parsing included file '/fetools/synopsys/installed_tools/vcs/vcs/Q-2020.03-SP2-8/etc/uvm-1.2/tlm2/uvm_tlm2_time.svh'.
Back to file '/fetools/synopsys/installed_tools/vcs/vcs/Q-2020.03-SP2-8/etc/uvm-1.2/tlm2/uvm_tlm2.svh'.
Parsing included file '/fetools/synopsys/installed_tools/vcs/vcs/Q-2020.03-SP2-8/etc/uvm-1.2/tlm2/uvm_tlm2_generic_payload.svh'.
Back to file '/fetools/synopsys/installed_tools/vcs/vcs/Q-2020.03-SP2-8/etc/uvm-1.2/tlm2/uvm_tlm2.svh'.
Parsing included file '/fetools/synopsys/installed_tools/vcs/vcs/Q-2020.03-SP2-8/etc/uvm-1.2/tlm2/uvm_tlm2_ifs.svh'.
Back to file '/fetools/synopsys/installed_tools/vcs/vcs/Q-2020.03-SP2-8/etc/uvm-1.2/tlm2/uvm_tlm2.svh'.
Parsing included file '/fetools/synopsys/installed_tools/vcs/vcs/Q-2020.03-SP2-8/etc/uvm-1.2/tlm2/uvm_tlm2_imps.svh'.
Back to file '/fetools/synopsys/installed_tools/vcs/vcs/Q-2020.03-SP2-8/etc/uvm-1.2/tlm2/uvm_tlm2.svh'.
Parsing included file '/fetools/synopsys/installed_tools/vcs/vcs/Q-2020.03-SP2-8/etc/uvm-1.2/tlm2/uvm_tlm2_ports.svh'.
Back to file '/fetools/synopsys/installed_tools/vcs/vcs/Q-2020.03-SP2-8/etc/uvm-1.2/tlm2/uvm_tlm2.svh'.
Parsing included file '/fetools/synopsys/installed_tools/vcs/vcs/Q-2020.03-SP2-8/etc/uvm-1.2/tlm2/uvm_tlm2_exports.svh'.
Back to file '/fetools/synopsys/installed_tools/vcs/vcs/Q-2020.03-SP2-8/etc/uvm-1.2/tlm2/uvm_tlm2.svh'.
Parsing included file '/fetools/synopsys/installed_tools/vcs/vcs/Q-2020.03-SP2-8/etc/uvm-1.2/tlm2/uvm_tlm2_sockets_base.svh'.
Back to file '/fetools/synopsys/installed_tools/vcs/vcs/Q-2020.03-SP2-8/etc/uvm-1.2/tlm2/uvm_tlm2.svh'.
Parsing included file '/fetools/synopsys/installed_tools/vcs/vcs/Q-2020.03-SP2-8/etc/uvm-1.2/tlm2/uvm_tlm2_sockets.svh'.
Back to file '/fetools/synopsys/installed_tools/vcs/vcs/Q-2020.03-SP2-8/etc/uvm-1.2/tlm2/uvm_tlm2.svh'.
Back to file '/fetools/synopsys/installed_tools/vcs/vcs/Q-2020.03-SP2-8/etc/uvm-1.2/uvm_pkg.sv'.
Parsing included file '/fetools/synopsys/installed_tools/vcs/vcs/Q-2020.03-SP2-8/etc/uvm-1.2/reg/uvm_reg_model.svh'.
Parsing included file '/fetools/synopsys/installed_tools/vcs/vcs/Q-2020.03-SP2-8/etc/uvm-1.2/reg/uvm_reg_item.svh'.
Back to file '/fetools/synopsys/installed_tools/vcs/vcs/Q-2020.03-SP2-8/etc/uvm-1.2/reg/uvm_reg_model.svh'.
Parsing included file '/fetools/synopsys/installed_tools/vcs/vcs/Q-2020.03-SP2-8/etc/uvm-1.2/reg/uvm_reg_adapter.svh'.
Back to file '/fetools/synopsys/installed_tools/vcs/vcs/Q-2020.03-SP2-8/etc/uvm-1.2/reg/uvm_reg_model.svh'.
Parsing included file '/fetools/synopsys/installed_tools/vcs/vcs/Q-2020.03-SP2-8/etc/uvm-1.2/reg/uvm_reg_predictor.svh'.
Back to file '/fetools/synopsys/installed_tools/vcs/vcs/Q-2020.03-SP2-8/etc/uvm-1.2/reg/uvm_reg_model.svh'.
Parsing included file '/fetools/synopsys/installed_tools/vcs/vcs/Q-2020.03-SP2-8/etc/uvm-1.2/reg/uvm_reg_sequence.svh'.
Back to file '/fetools/synopsys/installed_tools/vcs/vcs/Q-2020.03-SP2-8/etc/uvm-1.2/reg/uvm_reg_model.svh'.
Parsing included file '/fetools/synopsys/installed_tools/vcs/vcs/Q-2020.03-SP2-8/etc/uvm-1.2/reg/uvm_reg_cbs.svh'.
Back to file '/fetools/synopsys/installed_tools/vcs/vcs/Q-2020.03-SP2-8/etc/uvm-1.2/reg/uvm_reg_model.svh'.
Parsing included file '/fetools/synopsys/installed_tools/vcs/vcs/Q-2020.03-SP2-8/etc/uvm-1.2/reg/uvm_reg_backdoor.svh'.
Back to file '/fetools/synopsys/installed_tools/vcs/vcs/Q-2020.03-SP2-8/etc/uvm-1.2/reg/uvm_reg_model.svh'.
Parsing included file '/fetools/synopsys/installed_tools/vcs/vcs/Q-2020.03-SP2-8/etc/uvm-1.2/reg/uvm_reg_field.svh'.
Back to file '/fetools/synopsys/installed_tools/vcs/vcs/Q-2020.03-SP2-8/etc/uvm-1.2/reg/uvm_reg_model.svh'.
Parsing included file '/fetools/synopsys/installed_tools/vcs/vcs/Q-2020.03-SP2-8/etc/uvm-1.2/reg/uvm_vreg_field.svh'.
Back to file '/fetools/synopsys/installed_tools/vcs/vcs/Q-2020.03-SP2-8/etc/uvm-1.2/reg/uvm_reg_model.svh'.
Parsing included file '/fetools/synopsys/installed_tools/vcs/vcs/Q-2020.03-SP2-8/etc/uvm-1.2/reg/uvm_reg.svh'.
Back to file '/fetools/synopsys/installed_tools/vcs/vcs/Q-2020.03-SP2-8/etc/uvm-1.2/reg/uvm_reg_model.svh'.
Parsing included file '/fetools/synopsys/installed_tools/vcs/vcs/Q-2020.03-SP2-8/etc/uvm-1.2/reg/uvm_reg_indirect.svh'.
Back to file '/fetools/synopsys/installed_tools/vcs/vcs/Q-2020.03-SP2-8/etc/uvm-1.2/reg/uvm_reg_model.svh'.
Parsing included file '/fetools/synopsys/installed_tools/vcs/vcs/Q-2020.03-SP2-8/etc/uvm-1.2/reg/uvm_reg_fifo.svh'.
Back to file '/fetools/synopsys/installed_tools/vcs/vcs/Q-2020.03-SP2-8/etc/uvm-1.2/reg/uvm_reg_model.svh'.
Parsing included file '/fetools/synopsys/installed_tools/vcs/vcs/Q-2020.03-SP2-8/etc/uvm-1.2/reg/uvm_reg_file.svh'.
Back to file '/fetools/synopsys/installed_tools/vcs/vcs/Q-2020.03-SP2-8/etc/uvm-1.2/reg/uvm_reg_model.svh'.
Parsing included file '/fetools/synopsys/installed_tools/vcs/vcs/Q-2020.03-SP2-8/etc/uvm-1.2/reg/uvm_mem_mam.svh'.
Back to file '/fetools/synopsys/installed_tools/vcs/vcs/Q-2020.03-SP2-8/etc/uvm-1.2/reg/uvm_reg_model.svh'.
Parsing included file '/fetools/synopsys/installed_tools/vcs/vcs/Q-2020.03-SP2-8/etc/uvm-1.2/reg/uvm_vreg.svh'.
Back to file '/fetools/synopsys/installed_tools/vcs/vcs/Q-2020.03-SP2-8/etc/uvm-1.2/reg/uvm_reg_model.svh'.
Parsing included file '/fetools/synopsys/installed_tools/vcs/vcs/Q-2020.03-SP2-8/etc/uvm-1.2/reg/uvm_mem.svh'.
Back to file '/fetools/synopsys/installed_tools/vcs/vcs/Q-2020.03-SP2-8/etc/uvm-1.2/reg/uvm_reg_model.svh'.
Parsing included file '/fetools/synopsys/installed_tools/vcs/vcs/Q-2020.03-SP2-8/etc/uvm-1.2/reg/uvm_reg_map.svh'.
Back to file '/fetools/synopsys/installed_tools/vcs/vcs/Q-2020.03-SP2-8/etc/uvm-1.2/reg/uvm_reg_model.svh'.
Parsing included file '/fetools/synopsys/installed_tools/vcs/vcs/Q-2020.03-SP2-8/etc/uvm-1.2/reg/uvm_reg_block.svh'.
Back to file '/fetools/synopsys/installed_tools/vcs/vcs/Q-2020.03-SP2-8/etc/uvm-1.2/reg/uvm_reg_model.svh'.
Parsing included file '/fetools/synopsys/installed_tools/vcs/vcs/Q-2020.03-SP2-8/etc/uvm-1.2/reg/sequences/uvm_reg_hw_reset_seq.svh'.
Back to file '/fetools/synopsys/installed_tools/vcs/vcs/Q-2020.03-SP2-8/etc/uvm-1.2/reg/uvm_reg_model.svh'.
Parsing included file '/fetools/synopsys/installed_tools/vcs/vcs/Q-2020.03-SP2-8/etc/uvm-1.2/reg/sequences/uvm_reg_bit_bash_seq.svh'.
Back to file '/fetools/synopsys/installed_tools/vcs/vcs/Q-2020.03-SP2-8/etc/uvm-1.2/reg/uvm_reg_model.svh'.
Parsing included file '/fetools/synopsys/installed_tools/vcs/vcs/Q-2020.03-SP2-8/etc/uvm-1.2/reg/sequences/uvm_mem_walk_seq.svh'.
Back to file '/fetools/synopsys/installed_tools/vcs/vcs/Q-2020.03-SP2-8/etc/uvm-1.2/reg/uvm_reg_model.svh'.
Parsing included file '/fetools/synopsys/installed_tools/vcs/vcs/Q-2020.03-SP2-8/etc/uvm-1.2/reg/sequences/uvm_mem_access_seq.svh'.
Back to file '/fetools/synopsys/installed_tools/vcs/vcs/Q-2020.03-SP2-8/etc/uvm-1.2/reg/uvm_reg_model.svh'.
Parsing included file '/fetools/synopsys/installed_tools/vcs/vcs/Q-2020.03-SP2-8/etc/uvm-1.2/reg/sequences/uvm_reg_access_seq.svh'.
Back to file '/fetools/synopsys/installed_tools/vcs/vcs/Q-2020.03-SP2-8/etc/uvm-1.2/reg/uvm_reg_model.svh'.
Parsing included file '/fetools/synopsys/installed_tools/vcs/vcs/Q-2020.03-SP2-8/etc/uvm-1.2/reg/sequences/uvm_reg_mem_shared_access_seq.svh'.
Back to file '/fetools/synopsys/installed_tools/vcs/vcs/Q-2020.03-SP2-8/etc/uvm-1.2/reg/uvm_reg_model.svh'.
Parsing included file '/fetools/synopsys/installed_tools/vcs/vcs/Q-2020.03-SP2-8/etc/uvm-1.2/reg/sequences/uvm_reg_mem_built_in_seq.svh'.
Back to file '/fetools/synopsys/installed_tools/vcs/vcs/Q-2020.03-SP2-8/etc/uvm-1.2/reg/uvm_reg_model.svh'.
Parsing included file '/fetools/synopsys/installed_tools/vcs/vcs/Q-2020.03-SP2-8/etc/uvm-1.2/reg/sequences/uvm_reg_mem_hdl_paths_seq.svh'.
Back to file '/fetools/synopsys/installed_tools/vcs/vcs/Q-2020.03-SP2-8/etc/uvm-1.2/reg/uvm_reg_model.svh'.
Parsing included file '/fetools/synopsys/installed_tools/vcs/vcs/Q-2020.03-SP2-8/etc/uvm-1.2/reg/snps_uvm_reg_bank.svh'.
Back to file '/fetools/synopsys/installed_tools/vcs/vcs/Q-2020.03-SP2-8/etc/uvm-1.2/reg/uvm_reg_model.svh'.
Back to file '/fetools/synopsys/installed_tools/vcs/vcs/Q-2020.03-SP2-8/etc/uvm-1.2/uvm_pkg.sv'.
Parsing included file '/fetools/synopsys/installed_tools/vcs/vcs/Q-2020.03-SP2-8/etc/uvm-1.2/vcs/vcs_uvm_alt.sv'.
Back to file '/fetools/synopsys/installed_tools/vcs/vcs/Q-2020.03-SP2-8/etc/uvm-1.2/uvm_pkg.sv'.
Parsing design file '/fetools/synopsys/installed_tools/vcs/vcs/Q-2020.03-SP2-8/etc/uvm-1.2/vcs/uvm_custom_install_vcs_recorder.sv'
Parsing included file '/fetools/synopsys/installed_tools/vcs/vcs/Q-2020.03-SP2-8/etc/uvm-1.2/vcs/msglog.svh'.
Back to file '/fetools/synopsys/installed_tools/vcs/vcs/Q-2020.03-SP2-8/etc/uvm-1.2/vcs/uvm_custom_install_vcs_recorder.sv'.
Parsing included file '/fetools/synopsys/installed_tools/vcs/vcs/Q-2020.03-SP2-8/etc/uvm-1.2/vcs/uvm_msglog_report_server.sv'.
Back to file '/fetools/synopsys/installed_tools/vcs/vcs/Q-2020.03-SP2-8/etc/uvm-1.2/vcs/uvm_custom_install_vcs_recorder.sv'.
Parsing included file '/fetools/synopsys/installed_tools/vcs/vcs/Q-2020.03-SP2-8/etc/uvm-1.2/vcs/uvm_vcs_recorder.svh'.
Parsing included file '/fetools/synopsys/installed_tools/vcs/vcs/Q-2020.03-SP2-8/etc/uvm-1.2/vcs/uvm_vcs_tr_database.svh'.
Parsing included file '/fetools/synopsys/installed_tools/vcs/vcs/Q-2020.03-SP2-8/etc/uvm-1.2/vcs/uvm_vcs_tr_stream.svh'.
Back to file '/fetools/synopsys/installed_tools/vcs/vcs/Q-2020.03-SP2-8/etc/uvm-1.2/vcs/uvm_vcs_tr_database.svh'.
Back to file '/fetools/synopsys/installed_tools/vcs/vcs/Q-2020.03-SP2-8/etc/uvm-1.2/vcs/uvm_vcs_recorder.svh'.
Back to file '/fetools/synopsys/installed_tools/vcs/vcs/Q-2020.03-SP2-8/etc/uvm-1.2/vcs/uvm_custom_install_vcs_recorder.sv'.
Parsing included file '/fetools/synopsys/installed_tools/vcs/vcs/Q-2020.03-SP2-8/etc/uvm-1.2/vcs/uvm_vcs_record_interface.sv'.
Parsing included file '/fetools/synopsys/installed_tools/vcs/vcs/Q-2020.03-SP2-8/etc/uvm-1.2/macros/uvm_global_defines.svh'.
Back to file '/fetools/synopsys/installed_tools/vcs/vcs/Q-2020.03-SP2-8/etc/uvm-1.2/vcs/uvm_vcs_record_interface.sv'.
Back to file '/fetools/synopsys/installed_tools/vcs/vcs/Q-2020.03-SP2-8/etc/uvm-1.2/vcs/uvm_custom_install_vcs_recorder.sv'.
Parsing design file '/fetools/synopsys/installed_tools/vcs/vcs/Q-2020.03-SP2-8/etc/uvm-1.2/verdi/uvm_custom_install_verdi_recorder.sv'
Parsing included file '/fetools/synopsys/installed_tools/vcs/vcs/Q-2020.03-SP2-8/etc/uvm-1.2/uvm_macros.svh'.
Back to file '/fetools/synopsys/installed_tools/vcs/vcs/Q-2020.03-SP2-8/etc/uvm-1.2/verdi/uvm_custom_install_verdi_recorder.sv'.
Parsing included file '/fetools/synopsys/installed_tools/vcs/vcs/Q-2020.03-SP2-8/etc/uvm-1.2/verdi/uvm_verdi_recorder.svh'.
Parsing included file '/fetools/synopsys/installed_tools/vcs/vcs/Q-2020.03-SP2-8/etc/uvm-1.2/verdi/uvm_verdi_pli_base.svh'.
Back to file '/fetools/synopsys/installed_tools/vcs/vcs/Q-2020.03-SP2-8/etc/uvm-1.2/verdi/uvm_verdi_recorder.svh'.
Parsing included file '/fetools/synopsys/installed_tools/vcs/vcs/Q-2020.03-SP2-8/etc/uvm-1.2/verdi/uvm_verdi_tr_database.svh'.
Parsing included file '/fetools/synopsys/installed_tools/vcs/vcs/Q-2020.03-SP2-8/etc/uvm-1.2/verdi/uvm_verdi_tr_stream.svh'.
Back to file '/fetools/synopsys/installed_tools/vcs/vcs/Q-2020.03-SP2-8/etc/uvm-1.2/verdi/uvm_verdi_tr_database.svh'.
Back to file '/fetools/synopsys/installed_tools/vcs/vcs/Q-2020.03-SP2-8/etc/uvm-1.2/verdi/uvm_verdi_recorder.svh'.
Back to file '/fetools/synopsys/installed_tools/vcs/vcs/Q-2020.03-SP2-8/etc/uvm-1.2/verdi/uvm_custom_install_verdi_recorder.sv'.
Parsing included file '/fetools/synopsys/installed_tools/vcs/vcs/Q-2020.03-SP2-8/etc/uvm-1.2/verdi/uvm_verdi_reg_map_recording.sv'.
Back to file '/fetools/synopsys/installed_tools/vcs/vcs/Q-2020.03-SP2-8/etc/uvm-1.2/verdi/uvm_custom_install_verdi_recorder.sv'.
Parsing included file '/fetools/synopsys/installed_tools/vcs/vcs/Q-2020.03-SP2-8/etc/uvm-1.2/verdi/uvm_verdi_message_catcher.svh'.
Parsing included file '/fetools/synopsys/installed_tools/vcs/vcs/Q-2020.03-SP2-8/etc/uvm-1.2/verdi/uvm_verdi_pli_base.svh'.
Back to file '/fetools/synopsys/installed_tools/vcs/vcs/Q-2020.03-SP2-8/etc/uvm-1.2/verdi/uvm_verdi_message_catcher.svh'.
Back to file '/fetools/synopsys/installed_tools/vcs/vcs/Q-2020.03-SP2-8/etc/uvm-1.2/verdi/uvm_custom_install_verdi_recorder.sv'.
Parsing included file '/fetools/synopsys/installed_tools/vcs/vcs/Q-2020.03-SP2-8/etc/uvm-1.2/verdi/uvm_verdi_factory.svh'.
Back to file '/fetools/synopsys/installed_tools/vcs/vcs/Q-2020.03-SP2-8/etc/uvm-1.2/verdi/uvm_custom_install_verdi_recorder.sv'.
Parsing included file '/fetools/synopsys/installed_tools/vcs/vcs/Q-2020.03-SP2-8/etc/uvm-1.2/verdi/./dpi/uvm_verdi_dpi.svh'.
Back to file '/fetools/synopsys/installed_tools/vcs/vcs/Q-2020.03-SP2-8/etc/uvm-1.2/verdi/uvm_custom_install_verdi_recorder.sv'.
Parsing included file '/fetools/synopsys/installed_tools/vcs/vcs/Q-2020.03-SP2-8/etc/uvm-1.2/verdi/uvm_verdi_reg_recording.sv'.
Back to file '/fetools/synopsys/installed_tools/vcs/vcs/Q-2020.03-SP2-8/etc/uvm-1.2/verdi/uvm_custom_install_verdi_recorder.sv'.
Parsing included file '/fetools/synopsys/installed_tools/verdi/verdi/Q-2020.03-SP2-8/share/PLI/VCS/include/verdi_trans_recorder_dpi.svh'.
Back to file '/fetools/synopsys/installed_tools/vcs/vcs/Q-2020.03-SP2-8/etc/uvm-1.2/verdi/uvm_custom_install_verdi_recorder.sv'.
Parsing included file '/fetools/synopsys/installed_tools/vcs/vcs/Q-2020.03-SP2-8/etc/uvm-1.2/verdi/uvm_verdi_pli.svh'.
Back to file '/fetools/synopsys/installed_tools/vcs/vcs/Q-2020.03-SP2-8/etc/uvm-1.2/verdi/uvm_custom_install_verdi_recorder.sv'.
Parsing design file '/fetools/synopsys/installed_tools/vcs/vcs/Q-2020.03-SP2-8/etc/uvm-1.2/verdi/uvm_custom_install_verdi_recorder.sv'
Parsing design file 'top.sv'
Parsing included file 'DUT.sv'.
Back to file 'top.sv'.
Parsing included file 'package.sv'.
Parsing included file 'defines.svh'.
Back to file 'package.sv'.
Parsing included file '/fetools/synopsys/installed_tools/vcs/vcs/Q-2020.03-SP2-8/etc/uvm-1.2/uvm_macros.svh'.
Back to file 'package.sv'.
Parsing included file 'my_transaction.sv'.
Back to file 'package.sv'.
Parsing included file 'sequencer.sv'.
Back to file 'package.sv'.
Parsing included file 'sequences.sv'.
Back to file 'package.sv'.
Parsing included file 'driver.sv'.
Back to file 'package.sv'.
Parsing included file 'monitor.sv'.
Back to file 'package.sv'.
Parsing included file 'agent.sv'.
Back to file 'package.sv'.
Parsing included file 'subscriber.sv'.
Back to file 'package.sv'.
Parsing included file 'scoreboard.sv'.
Back to file 'package.sv'.
Parsing included file 'environment.sv'.
Back to file 'package.sv'.
Parsing included file 'test.sv'.
Back to file 'package.sv'.
Back to file 'top.sv'.
Parsing included file 'interface.sv'.
Back to file 'top.sv'.
Top Level Modules:
       uvm_custom_install_recording
       uvm_custom_install_verdi_recording
       top
No TimeScale specified
Starting vcs inline pass...

10 modules and 0 UDP read.
recompiling package vcs_paramclassrepository
recompiling package uvm_pkg
recompiling module uvm_custom_install_recording
recompiling module uvm_custom_install_verdi_recording
recompiling package pkg
5 of 10 modules done
	However, due to incremental compilation, only 5 modules need to be compiled. 
( cd csrc ; make -f Makefile SNPS_VCS_TMPDIR=/tmp/vcs_20260921070112_233307 product \
)
rm -f _cuarc*.so _csrc*.so pre_vcsobj_*.so share_vcsobj_*.so
ld -shared  -Bsymbolic   -o .//../simv.daidir//_cuarc0.so objs/amcQw_d.o 
rm -f _cuarc0.so
if [ -x ../simv ]; then chmod a-x ../simv; fi
g++  -o ../simv      -rdynamic  -Wl,-rpath='$ORIGIN'/simv.daidir -Wl,-rpath=./simv.daidir \
-Wl,-rpath=/fetools/synopsys/installed_tools/vcs/vcs/Q-2020.03-SP2-8/linux64/lib \
-L/fetools/synopsys/installed_tools/vcs/vcs/Q-2020.03-SP2-8/linux64/lib  -Wl,-rpath-link=./ \
/usr/lib64/libnuma.so.1 uvm_dpi.o uvm_verdi_dpi.o     _233758_archive_1.so _prev_archive_1.so \
_cuarc0.so  SIM_l.o      rmapats_mop.o rmapats.o rmar.o rmar_nd.o  rmar_llvm_0_1.o \
rmar_llvm_0_0.o          -lvirsim -lerrorinf -lsnpsmalloc -lvfs    -lvcsnew -lsimprofile \
-luclinative /fetools/synopsys/installed_tools/vcs/vcs/Q-2020.03-SP2-8/linux64/lib/vcs_tls.o \
-Wl,-whole-archive  -lvcsucli    -Wl,-no-whole-archive       ./../simv.daidir/vc_hdrs.o \
_vcs_pli_stub_.o   /fetools/synopsys/installed_tools/vcs/vcs/Q-2020.03-SP2-8/linux64/lib/vcs_save_restore_new.o \
/fetools/synopsys/installed_tools/verdi/verdi/Q-2020.03-SP2-8/share/PLI/VCS/LINUX64/pli.a \
-ldl  -lc -lm -lpthread -ldl 
../simv up to date
Running simv -V +v2k -a fell.log 
Command: /fetools/work_area/frontend/Batch_11/rakshanshetty/systemverilog/UVM_AXI4_LITE/./simv -V +v2k -a fell.log
Chronologic VCS simulator copyright 1991-2020
Contains Synopsys proprietary information.
Compiler version Q-2020.03-SP2-8_Full64; Runtime version Q-2020.03-SP2-8_Full64;  Sep 21 12:31 2026
VCS Build Date = Sep 11 2021 20:22:52
Start run at Sep 21 12:31 2026

UVM_INFO /fetools/synopsys/installed_tools/vcs/vcs/Q-2020.03-SP2-8/etc/uvm-1.2/base/uvm_root.svh(402) @ 0: reporter [UVM/RELNOTES] 
----------------------------------------------------------------
UVM-1.2.Synopsys
(C) 2007-2014 Mentor Graphics Corporation
(C) 2007-2014 Cadence Design Systems, Inc.
(C) 2006-2014 Synopsys, Inc.
(C) 2011-2013 Cypress Semiconductor Corp.
(C) 2013-2014 NVIDIA Corporation
----------------------------------------------------------------

  ***********       IMPORTANT RELEASE NOTES         ************

  You are using a version of the UVM library that has been compiled
  with `UVM_NO_DEPRECATED undefined.
  See http://www.eda.org/svdb/view.php?id=3313 for more details.

  You are using a version of the UVM library that has been compiled
  with `UVM_OBJECT_DO_NOT_NEED_CONSTRUCTOR undefined.
  See http://www.eda.org/svdb/view.php?id=3770 for more details.

      (Specify +UVM_NO_RELNOTES to turn off this notice)

UVM_INFO @ 0: reporter [RNTST] Running test test...
UVM_INFO /fetools/synopsys/installed_tools/vcs/vcs/Q-2020.03-SP2-8/etc/uvm-1.2/base/uvm_root.svh(589) @ 0: reporter [UVMTOP] UVM testbench topology:
--------------------------------------------------------------
Name                       Type                    Size  Value
--------------------------------------------------------------
uvm_test_top               test                    -     @342 
  env                      environment             -     @360 
    act                    agent                   -     @369 
      drv                  driver                  -     @457 
        rsp_port           uvm_analysis_port       -     @476 
        seq_item_port      uvm_seq_item_pull_port  -     @466 
      mon                  monitor                 -     @437 
        ap                 uvm_analysis_port       -     @446 
      sqr                  uvm_sequencer           -     @486 
        rsp_export         uvm_analysis_export     -     @495 
        seq_item_export    uvm_seq_item_pull_imp   -     @613 
        arbitration_queue  array                   0     -    
        lock_queue         array                   0     -    
        num_last_reqs      integral                32    'd1  
        num_last_rsps      integral                32    'd1  
    pass                   agent                   -     @378 
      mon                  monitor                 -     @632 
        ap                 uvm_analysis_port       -     @641 
    sc                     scoreboard              -     @387 
      in_mon               uvm_analysis_imp        -     @396 
      out_mon              uvm_analysis_imp_out    -     @406 
    sub                    subscriber              -     @416 
      analysis_imp         uvm_analysis_imp        -     @425 
      out_mon              uvm_analysis_imp_out    -     @653 
--------------------------------------------------------------

UVM_INFO sequences.sv(53) @ 0: uvm_test_top.env.act.sqr@@wr_simul [SEQ] AWADDR=28,AWPROT=0,AWVALID=0,WDATA=4004110301,WSTRB=110,WVALID=1,ARADDR=16,ARPROT=0,ARVALID=0,RREADY=0
UVM_INFO sequences.sv(53) @ 0: uvm_test_top.env.act.sqr@@wr_simul [SEQ] AWADDR=28,AWPROT=0,AWVALID=1,WDATA=4004110301,WSTRB=110,WVALID=1,ARADDR=16,ARPROT=0,ARVALID=0,RREADY=0
UVM_INFO driver.sv(37) @ 5: uvm_test_top.env.act.drv [DRV] AW=28/0/1 W=4004110301/110/1 AR=16/0/0 BREADY=0 RREADY=0
UVM_INFO sequences.sv(53) @ 5: uvm_test_top.env.act.sqr@@rd_a [SEQ] AWADDR=0,AWPROT=0,AWVALID=1,WDATA=869293862,WSTRB=1010,WVALID=0,ARADDR=24,ARPROT=0,ARVALID=1,RREADY=1
UVM_INFO sequences.sv(53) @ 5: uvm_test_top.env.act.sqr@@rd_a [SEQ] AWADDR=0,AWPROT=0,AWVALID=0,WDATA=869293862,WSTRB=1010,WVALID=0,ARADDR=24,ARPROT=0,ARVALID=1,RREADY=1
UVM_INFO driver.sv(37) @ 15: uvm_test_top.env.act.drv [DRV] AW=0/0/0 W=869293862/1010/0 AR=24/0/1 BREADY=1 RREADY=1
UVM_INFO sequences.sv(53) @ 15: uvm_test_top.env.act.sqr@@aw_w [SEQ] AWADDR=52,AWPROT=0,AWVALID=1,WDATA=4260921180,WSTRB=111,WVALID=0,ARADDR=56,ARPROT=0,ARVALID=0,RREADY=0
UVM_INFO sequences.sv(53) @ 15: uvm_test_top.env.act.sqr@@aw_w [SEQ] AWADDR=52,AWPROT=0,AWVALID=0,WDATA=4260921180,WSTRB=111,WVALID=0,ARADDR=56,ARPROT=0,ARVALID=0,RREADY=0
UVM_INFO driver.sv(37) @ 25: uvm_test_top.env.act.drv [DRV] AW=52/0/0 W=4260921180/111/0 AR=56/0/0 BREADY=0 RREADY=0
UVM_INFO sequences.sv(53) @ 25: uvm_test_top.env.act.sqr@@rd_b [SEQ] AWADDR=40,AWPROT=0,AWVALID=0,WDATA=1792067508,WSTRB=1,WVALID=0,ARADDR=20,ARPROT=0,ARVALID=1,RREADY=1
UVM_INFO sequences.sv(53) @ 25: uvm_test_top.env.act.sqr@@rd_b [SEQ] AWADDR=40,AWPROT=0,AWVALID=0,WDATA=1792067508,WSTRB=1,WVALID=0,ARADDR=20,ARPROT=0,ARVALID=1,RREADY=1
UVM_INFO driver.sv(37) @ 35: uvm_test_top.env.act.drv [DRV] AW=40/0/0 W=1792067508/1/0 AR=20/0/1 BREADY=0 RREADY=1
UVM_INFO sequences.sv(53) @ 35: uvm_test_top.env.act.sqr@@w_aw [SEQ] AWADDR=40,AWPROT=0,AWVALID=0,WDATA=461172412,WSTRB=1000,WVALID=1,ARADDR=32,ARPROT=0,ARVALID=0,RREADY=0
UVM_INFO sequences.sv(53) @ 35: uvm_test_top.env.act.sqr@@w_aw [SEQ] AWADDR=40,AWPROT=0,AWVALID=0,WDATA=461172412,WSTRB=1000,WVALID=0,ARADDR=32,ARPROT=0,ARVALID=0,RREADY=0
UVM_INFO driver.sv(37) @ 45: uvm_test_top.env.act.drv [DRV] AW=40/0/0 W=461172412/1000/0 AR=32/0/0 BREADY=0 RREADY=0
UVM_INFO sequences.sv(53) @ 45: uvm_test_top.env.act.sqr@@rd_c [SEQ] AWADDR=44,AWPROT=0,AWVALID=1,WDATA=64193170,WSTRB=1111,WVALID=1,ARADDR=24,ARPROT=0,ARVALID=1,RREADY=0
UVM_INFO sequences.sv(53) @ 45: uvm_test_top.env.act.sqr@@rd_c [SEQ] AWADDR=44,AWPROT=0,AWVALID=0,WDATA=64193170,WSTRB=1111,WVALID=0,ARADDR=24,ARPROT=0,ARVALID=1,RREADY=0
UVM_INFO driver.sv(37) @ 55: uvm_test_top.env.act.drv [DRV] AW=44/0/0 W=64193170/1111/0 AR=24/0/1 BREADY=0 RREADY=0
UVM_INFO sequences.sv(53) @ 55: uvm_test_top.env.act.sqr@@wr_rd [SEQ] AWADDR=16,AWPROT=0,AWVALID=0,WDATA=1419619327,WSTRB=1011,WVALID=1,ARADDR=28,ARPROT=0,ARVALID=0,RREADY=1
UVM_INFO sequences.sv(53) @ 55: uvm_test_top.env.act.sqr@@wr_rd [SEQ] AWADDR=16,AWPROT=0,AWVALID=1,WDATA=1419619327,WSTRB=1011,WVALID=1,ARADDR=28,ARPROT=0,ARVALID=1,RREADY=1
UVM_INFO driver.sv(37) @ 65: uvm_test_top.env.act.drv [DRV] AW=16/0/1 W=1419619327/1011/1 AR=28/0/1 BREADY=0 RREADY=1
UVM_INFO sequences.sv(53) @ 65: uvm_test_top.env.act.sqr@@seq [SEQ] AWADDR=44,AWPROT=0,AWVALID=0,WDATA=2944509091,WSTRB=101,WVALID=0,ARADDR=48,ARPROT=0,ARVALID=0,RREADY=1
UVM_INFO scoreboard.sv(272) @ 75: uvm_test_top.env.sc [SCOREBOARD] DUT: BRESP=0, RDATA=0, RRESP=0
REF: BRESP=0, RDATA=0, RRESP=0


UVM_INFO driver.sv(37) @ 75: uvm_test_top.env.act.drv [DRV] AW=44/0/0 W=2944509091/101/0 AR=48/0/0 BREADY=0 RREADY=1
UVM_INFO sequences.sv(53) @ 75: uvm_test_top.env.act.sqr@@wr_simul [SEQ] AWADDR=20,AWPROT=0,AWVALID=0,WDATA=309830261,WSTRB=0,WVALID=1,ARADDR=16,ARPROT=0,ARVALID=1,RREADY=1
UVM_INFO sequences.sv(53) @ 75: uvm_test_top.env.act.sqr@@wr_simul [SEQ] AWADDR=20,AWPROT=0,AWVALID=1,WDATA=309830261,WSTRB=0,WVALID=1,ARADDR=16,ARPROT=0,ARVALID=0,RREADY=1
UVM_INFO driver.sv(37) @ 85: uvm_test_top.env.act.drv [DRV] AW=20/0/1 W=309830261/0/1 AR=16/0/0 BREADY=0 RREADY=1
UVM_INFO sequences.sv(53) @ 85: uvm_test_top.env.act.sqr@@rd_a [SEQ] AWADDR=12,AWPROT=0,AWVALID=1,WDATA=1085520442,WSTRB=1111,WVALID=0,ARADDR=20,ARPROT=0,ARVALID=1,RREADY=1
UVM_INFO sequences.sv(53) @ 85: uvm_test_top.env.act.sqr@@rd_a [SEQ] AWADDR=12,AWPROT=0,AWVALID=0,WDATA=1085520442,WSTRB=1111,WVALID=0,ARADDR=20,ARPROT=0,ARVALID=1,RREADY=1
UVM_INFO driver.sv(37) @ 95: uvm_test_top.env.act.drv [DRV] AW=12/0/0 W=1085520442/1111/0 AR=20/0/1 BREADY=0 RREADY=1
UVM_INFO sequences.sv(53) @ 95: uvm_test_top.env.act.sqr@@aw_w [SEQ] AWADDR=4,AWPROT=0,AWVALID=0,WDATA=1845686736,WSTRB=11,WVALID=1,ARADDR=44,ARPROT=0,ARVALID=0,RREADY=0
UVM_INFO sequences.sv(53) @ 95: uvm_test_top.env.act.sqr@@aw_w [SEQ] AWADDR=4,AWPROT=0,AWVALID=0,WDATA=1845686736,WSTRB=11,WVALID=0,ARADDR=44,ARPROT=0,ARVALID=0,RREADY=0
UVM_INFO driver.sv(37) @ 105: uvm_test_top.env.act.drv [DRV] AW=4/0/0 W=1845686736/11/0 AR=44/0/0 BREADY=1 RREADY=0
UVM_INFO sequences.sv(53) @ 105: uvm_test_top.env.act.sqr@@rd_b [SEQ] AWADDR=12,AWPROT=0,AWVALID=1,WDATA=3363313527,WSTRB=1110,WVALID=0,ARADDR=28,ARPROT=0,ARVALID=1,RREADY=0
UVM_INFO sequences.sv(53) @ 105: uvm_test_top.env.act.sqr@@rd_b [SEQ] AWADDR=12,AWPROT=0,AWVALID=0,WDATA=3363313527,WSTRB=1110,WVALID=0,ARADDR=28,ARPROT=0,ARVALID=1,RREADY=0
UVM_INFO scoreboard.sv(272) @ 115: uvm_test_top.env.sc [SCOREBOARD] DUT: BRESP=0, RDATA=0, RRESP=0
REF: BRESP=0, RDATA=0, RRESP=0


UVM_INFO driver.sv(37) @ 115: uvm_test_top.env.act.drv [DRV] AW=12/0/0 W=3363313527/1110/0 AR=28/0/1 BREADY=1 RREADY=0
UVM_INFO sequences.sv(53) @ 115: uvm_test_top.env.act.sqr@@w_aw [SEQ] AWADDR=24,AWPROT=0,AWVALID=1,WDATA=440502963,WSTRB=0,WVALID=1,ARADDR=40,ARPROT=0,ARVALID=1,RREADY=0
UVM_INFO sequences.sv(53) @ 115: uvm_test_top.env.act.sqr@@w_aw [SEQ] AWADDR=24,AWPROT=0,AWVALID=0,WDATA=440502963,WSTRB=0,WVALID=1,ARADDR=40,ARPROT=0,ARVALID=0,RREADY=0
UVM_INFO driver.sv(37) @ 125: uvm_test_top.env.act.drv [DRV] AW=24/0/0 W=440502963/0/1 AR=40/0/0 BREADY=1 RREADY=0
UVM_INFO sequences.sv(53) @ 125: uvm_test_top.env.act.sqr@@rd_c [SEQ] AWADDR=0,AWPROT=0,AWVALID=1,WDATA=927270660,WSTRB=1110,WVALID=0,ARADDR=24,ARPROT=0,ARVALID=1,RREADY=1
UVM_INFO sequences.sv(53) @ 125: uvm_test_top.env.act.sqr@@rd_c [SEQ] AWADDR=0,AWPROT=0,AWVALID=0,WDATA=927270660,WSTRB=1110,WVALID=0,ARADDR=24,ARPROT=0,ARVALID=1,RREADY=1
UVM_INFO driver.sv(37) @ 135: uvm_test_top.env.act.drv [DRV] AW=0/0/0 W=927270660/1110/0 AR=24/0/1 BREADY=0 RREADY=1
UVM_INFO sequences.sv(53) @ 135: uvm_test_top.env.act.sqr@@wr_rd [SEQ] AWADDR=16,AWPROT=0,AWVALID=1,WDATA=1419619327,WSTRB=1011,WVALID=1,ARADDR=8,ARPROT=0,ARVALID=0,RREADY=1
UVM_INFO sequences.sv(53) @ 135: uvm_test_top.env.act.sqr@@wr_rd [SEQ] AWADDR=16,AWPROT=0,AWVALID=1,WDATA=1419619327,WSTRB=1011,WVALID=1,ARADDR=8,ARPROT=0,ARVALID=1,RREADY=1
UVM_INFO scoreboard.sv(272) @ 145: uvm_test_top.env.sc [SCOREBOARD] DUT: BRESP=0, RDATA=0, RRESP=0
REF: BRESP=0, RDATA=0, RRESP=0


UVM_INFO driver.sv(37) @ 145: uvm_test_top.env.act.drv [DRV] AW=16/0/1 W=1419619327/1011/1 AR=8/0/1 BREADY=0 RREADY=1
UVM_INFO sequences.sv(53) @ 145: uvm_test_top.env.act.sqr@@seq [SEQ] AWADDR=28,AWPROT=0,AWVALID=1,WDATA=2200498967,WSTRB=111,WVALID=0,ARADDR=48,ARPROT=0,ARVALID=0,RREADY=0
UVM_INFO driver.sv(37) @ 155: uvm_test_top.env.act.drv [DRV] AW=28/0/1 W=2200498967/111/0 AR=48/0/0 BREADY=0 RREADY=0
UVM_INFO sequences.sv(53) @ 155: uvm_test_top.env.act.sqr@@wr_simul [SEQ] AWADDR=20,AWPROT=0,AWVALID=1,WDATA=309830261,WSTRB=0,WVALID=1,ARADDR=56,ARPROT=0,ARVALID=1,RREADY=0
UVM_INFO sequences.sv(53) @ 155: uvm_test_top.env.act.sqr@@wr_simul [SEQ] AWADDR=20,AWPROT=0,AWVALID=1,WDATA=309830261,WSTRB=0,WVALID=1,ARADDR=56,ARPROT=0,ARVALID=0,RREADY=0
UVM_INFO driver.sv(37) @ 165: uvm_test_top.env.act.drv [DRV] AW=20/0/1 W=309830261/0/1 AR=56/0/0 BREADY=0 RREADY=0
UVM_INFO sequences.sv(53) @ 165: uvm_test_top.env.act.sqr@@rd_a [SEQ] AWADDR=36,AWPROT=0,AWVALID=0,WDATA=1962065987,WSTRB=1110,WVALID=1,ARADDR=20,ARPROT=0,ARVALID=1,RREADY=1
UVM_INFO sequences.sv(53) @ 165: uvm_test_top.env.act.sqr@@rd_a [SEQ] AWADDR=36,AWPROT=0,AWVALID=0,WDATA=1962065987,WSTRB=1110,WVALID=0,ARADDR=20,ARPROT=0,ARVALID=1,RREADY=1
UVM_INFO driver.sv(37) @ 175: uvm_test_top.env.act.drv [DRV] AW=36/0/0 W=1962065987/1110/0 AR=20/0/1 BREADY=1 RREADY=1
UVM_INFO sequences.sv(53) @ 175: uvm_test_top.env.act.sqr@@aw_w [SEQ] AWADDR=40,AWPROT=0,AWVALID=1,WDATA=4240987607,WSTRB=1110,WVALID=0,ARADDR=24,ARPROT=0,ARVALID=1,RREADY=0
UVM_INFO sequences.sv(53) @ 175: uvm_test_top.env.act.sqr@@aw_w [SEQ] AWADDR=40,AWPROT=0,AWVALID=0,WDATA=4240987607,WSTRB=1110,WVALID=0,ARADDR=24,ARPROT=0,ARVALID=0,RREADY=0
UVM_INFO scoreboard.sv(272) @ 185: uvm_test_top.env.sc [SCOREBOARD] DUT: BRESP=0, RDATA=0, RRESP=0
REF: BRESP=0, RDATA=0, RRESP=0


UVM_INFO driver.sv(37) @ 185: uvm_test_top.env.act.drv [DRV] AW=40/0/0 W=4240987607/1110/0 AR=24/0/0 BREADY=1 RREADY=0
UVM_INFO sequences.sv(53) @ 185: uvm_test_top.env.act.sqr@@rd_b [SEQ] AWADDR=16,AWPROT=0,AWVALID=1,WDATA=191472785,WSTRB=1,WVALID=0,ARADDR=12,ARPROT=0,ARVALID=1,RREADY=0
UVM_INFO sequences.sv(53) @ 185: uvm_test_top.env.act.sqr@@rd_b [SEQ] AWADDR=16,AWPROT=0,AWVALID=0,WDATA=191472785,WSTRB=1,WVALID=0,ARADDR=12,ARPROT=0,ARVALID=1,RREADY=0
UVM_INFO driver.sv(37) @ 195: uvm_test_top.env.act.drv [DRV] AW=16/0/0 W=191472785/1/0 AR=12/0/1 BREADY=0 RREADY=0
UVM_INFO sequences.sv(53) @ 195: uvm_test_top.env.act.sqr@@w_aw [SEQ] AWADDR=52,AWPROT=0,AWVALID=1,WDATA=1891945065,WSTRB=111,WVALID=0,ARADDR=28,ARPROT=0,ARVALID=0,RREADY=0
UVM_INFO sequences.sv(53) @ 195: uvm_test_top.env.act.sqr@@w_aw [SEQ] AWADDR=52,AWPROT=0,AWVALID=0,WDATA=1891945065,WSTRB=111,WVALID=0,ARADDR=28,ARPROT=0,ARVALID=0,RREADY=0
UVM_INFO driver.sv(37) @ 205: uvm_test_top.env.act.drv [DRV] AW=52/0/0 W=1891945065/111/0 AR=28/0/0 BREADY=1 RREADY=0
UVM_INFO sequences.sv(53) @ 205: uvm_test_top.env.act.sqr@@rd_c [SEQ] AWADDR=36,AWPROT=0,AWVALID=0,WDATA=3738139627,WSTRB=1010,WVALID=0,ARADDR=60,ARPROT=0,ARVALID=0,RREADY=0
UVM_INFO sequences.sv(53) @ 205: uvm_test_top.env.act.sqr@@rd_c [SEQ] AWADDR=36,AWPROT=0,AWVALID=0,WDATA=3738139627,WSTRB=1010,WVALID=0,ARADDR=60,ARPROT=0,ARVALID=1,RREADY=0
UVM_INFO driver.sv(37) @ 215: uvm_test_top.env.act.drv [DRV] AW=36/0/0 W=3738139627/1010/0 AR=60/0/1 BREADY=0 RREADY=0
UVM_INFO sequences.sv(53) @ 215: uvm_test_top.env.act.sqr@@wr_rd [SEQ] AWADDR=16,AWPROT=0,AWVALID=1,WDATA=1419619327,WSTRB=1011,WVALID=1,ARADDR=24,ARPROT=0,ARVALID=0,RREADY=0
UVM_INFO sequences.sv(53) @ 215: uvm_test_top.env.act.sqr@@wr_rd [SEQ] AWADDR=16,AWPROT=0,AWVALID=1,WDATA=1419619327,WSTRB=1011,WVALID=1,ARADDR=24,ARPROT=0,ARVALID=1,RREADY=0
UVM_INFO driver.sv(37) @ 225: uvm_test_top.env.act.drv [DRV] AW=16/0/1 W=1419619327/1011/1 AR=24/0/1 BREADY=1 RREADY=0
UVM_INFO sequences.sv(53) @ 225: uvm_test_top.env.act.sqr@@seq [SEQ] AWADDR=28,AWPROT=0,AWVALID=1,WDATA=304522503,WSTRB=111,WVALID=0,ARADDR=44,ARPROT=0,ARVALID=0,RREADY=0
UVM_INFO driver.sv(37) @ 235: uvm_test_top.env.act.drv [DRV] AW=28/0/1 W=304522503/111/0 AR=44/0/0 BREADY=1 RREADY=0
UVM_INFO sequences.sv(53) @ 235: uvm_test_top.env.act.sqr@@wr_simul [SEQ] AWADDR=20,AWPROT=0,AWVALID=1,WDATA=309830261,WSTRB=0,WVALID=1,ARADDR=8,ARPROT=0,ARVALID=1,RREADY=0
UVM_INFO sequences.sv(53) @ 235: uvm_test_top.env.act.sqr@@wr_simul [SEQ] AWADDR=20,AWPROT=0,AWVALID=1,WDATA=309830261,WSTRB=0,WVALID=1,ARADDR=8,ARPROT=0,ARVALID=0,RREADY=0
UVM_INFO driver.sv(37) @ 245: uvm_test_top.env.act.drv [DRV] AW=20/0/1 W=309830261/0/1 AR=8/0/0 BREADY=0 RREADY=0
UVM_INFO sequences.sv(53) @ 245: uvm_test_top.env.act.sqr@@rd_a [SEQ] AWADDR=24,AWPROT=0,AWVALID=0,WDATA=2694808983,WSTRB=1001,WVALID=1,ARADDR=20,ARPROT=0,ARVALID=1,RREADY=0
UVM_INFO sequences.sv(53) @ 245: uvm_test_top.env.act.sqr@@rd_a [SEQ] AWADDR=24,AWPROT=0,AWVALID=0,WDATA=2694808983,WSTRB=1001,WVALID=0,ARADDR=20,ARPROT=0,ARVALID=1,RREADY=0
UVM_INFO driver.sv(37) @ 255: uvm_test_top.env.act.drv [DRV] AW=24/0/0 W=2694808983/1001/0 AR=20/0/1 BREADY=1 RREADY=0
UVM_INFO sequences.sv(53) @ 255: uvm_test_top.env.act.sqr@@aw_w [SEQ] AWADDR=40,AWPROT=0,AWVALID=0,WDATA=107997841,WSTRB=100,WVALID=1,ARADDR=44,ARPROT=0,ARVALID=0,RREADY=1
UVM_INFO sequences.sv(53) @ 255: uvm_test_top.env.act.sqr@@aw_w [SEQ] AWADDR=40,AWPROT=0,AWVALID=0,WDATA=107997841,WSTRB=100,WVALID=0,ARADDR=44,ARPROT=0,ARVALID=0,RREADY=1
UVM_INFO driver.sv(37) @ 265: uvm_test_top.env.act.drv [DRV] AW=40/0/0 W=107997841/100/0 AR=44/0/0 BREADY=1 RREADY=1
UVM_INFO sequences.sv(53) @ 265: uvm_test_top.env.act.sqr@@rd_b [SEQ] AWADDR=60,AWPROT=0,AWVALID=0,WDATA=4227707304,WSTRB=10,WVALID=1,ARADDR=20,ARPROT=0,ARVALID=0,RREADY=1
UVM_INFO sequences.sv(53) @ 265: uvm_test_top.env.act.sqr@@rd_b [SEQ] AWADDR=60,AWPROT=0,AWVALID=0,WDATA=4227707304,WSTRB=10,WVALID=0,ARADDR=20,ARPROT=0,ARVALID=1,RREADY=1
UVM_INFO scoreboard.sv(272) @ 275: uvm_test_top.env.sc [SCOREBOARD] DUT: BRESP=0, RDATA=0, RRESP=0
REF: BRESP=0, RDATA=0, RRESP=0


UVM_INFO scoreboard.sv(272) @ 275: uvm_test_top.env.sc [SCOREBOARD] DUT: BRESP=0, RDATA=0, RRESP=0
REF: BRESP=0, RDATA=0, RRESP=0


UVM_INFO driver.sv(37) @ 275: uvm_test_top.env.act.drv [DRV] AW=60/0/0 W=4227707304/10/0 AR=20/0/1 BREADY=0 RREADY=1
UVM_INFO sequences.sv(53) @ 275: uvm_test_top.env.act.sqr@@w_aw [SEQ] AWADDR=12,AWPROT=0,AWVALID=1,WDATA=3388808379,WSTRB=1101,WVALID=1,ARADDR=20,ARPROT=0,ARVALID=0,RREADY=1
UVM_INFO sequences.sv(53) @ 275: uvm_test_top.env.act.sqr@@w_aw [SEQ] AWADDR=12,AWPROT=0,AWVALID=0,WDATA=3388808379,WSTRB=1101,WVALID=0,ARADDR=20,ARPROT=0,ARVALID=0,RREADY=1
UVM_INFO driver.sv(37) @ 285: uvm_test_top.env.act.drv [DRV] AW=12/0/0 W=3388808379/1101/0 AR=20/0/0 BREADY=1 RREADY=1
UVM_INFO sequences.sv(53) @ 285: uvm_test_top.env.act.sqr@@rd_c [SEQ] AWADDR=36,AWPROT=0,AWVALID=1,WDATA=1688631347,WSTRB=1111,WVALID=0,ARADDR=16,ARPROT=0,ARVALID=1,RREADY=1
UVM_INFO sequences.sv(53) @ 285: uvm_test_top.env.act.sqr@@rd_c [SEQ] AWADDR=36,AWPROT=0,AWVALID=0,WDATA=1688631347,WSTRB=1111,WVALID=0,ARADDR=16,ARPROT=0,ARVALID=1,RREADY=1
UVM_INFO driver.sv(37) @ 295: uvm_test_top.env.act.drv [DRV] AW=36/0/0 W=1688631347/1111/0 AR=16/0/1 BREADY=0 RREADY=1
UVM_INFO sequences.sv(53) @ 295: uvm_test_top.env.act.sqr@@wr_rd [SEQ] AWADDR=16,AWPROT=0,AWVALID=1,WDATA=1419619327,WSTRB=1011,WVALID=1,ARADDR=36,ARPROT=0,ARVALID=1,RREADY=1
UVM_INFO sequences.sv(53) @ 295: uvm_test_top.env.act.sqr@@wr_rd [SEQ] AWADDR=16,AWPROT=0,AWVALID=1,WDATA=1419619327,WSTRB=1011,WVALID=1,ARADDR=36,ARPROT=0,ARVALID=1,RREADY=1
UVM_INFO driver.sv(37) @ 305: uvm_test_top.env.act.drv [DRV] AW=16/0/1 W=1419619327/1011/1 AR=36/0/1 BREADY=1 RREADY=1
UVM_INFO sequences.sv(53) @ 305: uvm_test_top.env.act.sqr@@seq [SEQ] AWADDR=28,AWPROT=0,AWVALID=1,WDATA=1183513156,WSTRB=1000,WVALID=1,ARADDR=40,ARPROT=0,ARVALID=0,RREADY=1
UVM_INFO scoreboard.sv(278) @ 315: uvm_test_top.env.sc [SCOREBOARD] DUT: BRESP=0, RDATA=0, RRESP=0
REF: BRESP=0, RDATA=5400abff, RRESP=0
_______________________________________________________________________________________________________________________
_
UVM_INFO driver.sv(37) @ 315: uvm_test_top.env.act.drv [DRV] AW=28/0/1 W=1183513156/1000/1 AR=40/0/0 BREADY=0 RREADY=1
UVM_INFO sequences.sv(53) @ 315: uvm_test_top.env.act.sqr@@wr_simul [SEQ] AWADDR=20,AWPROT=0,AWVALID=1,WDATA=309830261,WSTRB=0,WVALID=1,ARADDR=20,ARPROT=0,ARVALID=1,RREADY=1
UVM_INFO sequences.sv(53) @ 315: uvm_test_top.env.act.sqr@@wr_simul [SEQ] AWADDR=20,AWPROT=0,AWVALID=1,WDATA=309830261,WSTRB=0,WVALID=1,ARADDR=20,ARPROT=0,ARVALID=0,RREADY=1
UVM_INFO driver.sv(37) @ 325: uvm_test_top.env.act.drv [DRV] AW=20/0/1 W=309830261/0/1 AR=20/0/0 BREADY=0 RREADY=1
UVM_INFO sequences.sv(53) @ 325: uvm_test_top.env.act.sqr@@rd_a [SEQ] AWADDR=40,AWPROT=0,AWVALID=0,WDATA=1200274306,WSTRB=101,WVALID=0,ARADDR=56,ARPROT=0,ARVALID=0,RREADY=0
UVM_INFO sequences.sv(53) @ 325: uvm_test_top.env.act.sqr@@rd_a [SEQ] AWADDR=40,AWPROT=0,AWVALID=0,WDATA=1200274306,WSTRB=101,WVALID=0,ARADDR=56,ARPROT=0,ARVALID=1,RREADY=0
UVM_INFO driver.sv(37) @ 335: uvm_test_top.env.act.drv [DRV] AW=40/0/0 W=1200274306/101/0 AR=56/0/1 BREADY=1 RREADY=0
UVM_INFO sequences.sv(53) @ 335: uvm_test_top.env.act.sqr@@aw_w [SEQ] AWADDR=40,AWPROT=0,AWVALID=0,WDATA=2374878954,WSTRB=0,WVALID=0,ARADDR=52,ARPROT=0,ARVALID=1,RREADY=0
UVM_INFO sequences.sv(53) @ 335: uvm_test_top.env.act.sqr@@aw_w [SEQ] AWADDR=40,AWPROT=0,AWVALID=0,WDATA=2374878954,WSTRB=0,WVALID=0,ARADDR=52,ARPROT=0,ARVALID=0,RREADY=0
UVM_INFO scoreboard.sv(272) @ 345: uvm_test_top.env.sc [SCOREBOARD] DUT: BRESP=0, RDATA=0, RRESP=0
REF: BRESP=0, RDATA=0, RRESP=0


UVM_INFO driver.sv(37) @ 345: uvm_test_top.env.act.drv [DRV] AW=40/0/0 W=2374878954/0/0 AR=52/0/0 BREADY=1 RREADY=0
UVM_INFO sequences.sv(53) @ 345: uvm_test_top.env.act.sqr@@rd_b [SEQ] AWADDR=48,AWPROT=0,AWVALID=1,WDATA=2795842782,WSTRB=1111,WVALID=0,ARADDR=4,ARPROT=0,ARVALID=0,RREADY=0
UVM_INFO sequences.sv(53) @ 345: uvm_test_top.env.act.sqr@@rd_b [SEQ] AWADDR=48,AWPROT=0,AWVALID=0,WDATA=2795842782,WSTRB=1111,WVALID=0,ARADDR=4,ARPROT=0,ARVALID=1,RREADY=0
UVM_INFO driver.sv(37) @ 355: uvm_test_top.env.act.drv [DRV] AW=48/0/0 W=2795842782/1111/0 AR=4/0/1 BREADY=0 RREADY=0
UVM_INFO sequences.sv(53) @ 355: uvm_test_top.env.act.sqr@@w_aw [SEQ] AWADDR=56,AWPROT=0,AWVALID=1,WDATA=3281518561,WSTRB=1110,WVALID=0,ARADDR=4,ARPROT=0,ARVALID=0,RREADY=0
UVM_INFO sequences.sv(53) @ 355: uvm_test_top.env.act.sqr@@w_aw [SEQ] AWADDR=56,AWPROT=0,AWVALID=0,WDATA=3281518561,WSTRB=1110,WVALID=0,ARADDR=4,ARPROT=0,ARVALID=0,RREADY=0
UVM_INFO driver.sv(37) @ 365: uvm_test_top.env.act.drv [DRV] AW=56/0/0 W=3281518561/1110/0 AR=4/0/0 BREADY=1 RREADY=0
UVM_INFO sequences.sv(53) @ 365: uvm_test_top.env.act.sqr@@rd_c [SEQ] AWADDR=4,AWPROT=0,AWVALID=1,WDATA=3048542327,WSTRB=1100,WVALID=1,ARADDR=16,ARPROT=0,ARVALID=1,RREADY=1
UVM_INFO sequences.sv(53) @ 365: uvm_test_top.env.act.sqr@@rd_c [SEQ] AWADDR=4,AWPROT=0,AWVALID=0,WDATA=3048542327,WSTRB=1100,WVALID=0,ARADDR=16,ARPROT=0,ARVALID=1,RREADY=1
UVM_INFO driver.sv(37) @ 375: uvm_test_top.env.act.drv [DRV] AW=4/0/0 W=3048542327/1100/0 AR=16/0/1 BREADY=0 RREADY=1
UVM_INFO sequences.sv(53) @ 375: uvm_test_top.env.act.sqr@@wr_rd [SEQ] AWADDR=24,AWPROT=0,AWVALID=1,WDATA=1948950190,WSTRB=1101,WVALID=0,ARADDR=52,ARPROT=0,ARVALID=1,RREADY=0
UVM_INFO sequences.sv(53) @ 375: uvm_test_top.env.act.sqr@@wr_rd [SEQ] AWADDR=24,AWPROT=0,AWVALID=1,WDATA=1948950190,WSTRB=1101,WVALID=1,ARADDR=52,ARPROT=0,ARVALID=1,RREADY=0
UVM_INFO scoreboard.sv(272) @ 385: uvm_test_top.env.sc [SCOREBOARD] DUT: BRESP=0, RDATA=0, RRESP=2
REF: BRESP=0, RDATA=0, RRESP=2


UVM_INFO driver.sv(37) @ 385: uvm_test_top.env.act.drv [DRV] AW=24/0/1 W=1948950190/1101/1 AR=52/0/1 BREADY=1 RREADY=0
UVM_INFO sequences.sv(53) @ 385: uvm_test_top.env.act.sqr@@seq [SEQ] AWADDR=28,AWPROT=0,AWVALID=1,WDATA=1183513156,WSTRB=1000,WVALID=1,ARADDR=32,ARPROT=0,ARVALID=1,RREADY=0
UVM_INFO driver.sv(37) @ 395: uvm_test_top.env.act.drv [DRV] AW=28/0/1 W=1183513156/1000/1 AR=32/0/1 BREADY=0 RREADY=0
UVM_INFO sequences.sv(53) @ 395: uvm_test_top.env.act.sqr@@wr_simul [SEQ] AWADDR=20,AWPROT=0,AWVALID=1,WDATA=309830261,WSTRB=0,WVALID=1,ARADDR=36,ARPROT=0,ARVALID=1,RREADY=0
UVM_INFO sequences.sv(53) @ 395: uvm_test_top.env.act.sqr@@wr_simul [SEQ] AWADDR=20,AWPROT=0,AWVALID=1,WDATA=309830261,WSTRB=0,WVALID=1,ARADDR=36,ARPROT=0,ARVALID=0,RREADY=0
UVM_INFO driver.sv(37) @ 405: uvm_test_top.env.act.drv [DRV] AW=20/0/1 W=309830261/0/1 AR=36/0/0 BREADY=1 RREADY=0
UVM_INFO sequences.sv(53) @ 405: uvm_test_top.env.act.sqr@@rd_a [SEQ] AWADDR=52,AWPROT=0,AWVALID=0,WDATA=1875036257,WSTRB=0,WVALID=0,ARADDR=56,ARPROT=0,ARVALID=1,RREADY=1
UVM_INFO sequences.sv(53) @ 405: uvm_test_top.env.act.sqr@@rd_a [SEQ] AWADDR=52,AWPROT=0,AWVALID=0,WDATA=1875036257,WSTRB=0,WVALID=0,ARADDR=56,ARPROT=0,ARVALID=1,RREADY=1
UVM_INFO driver.sv(37) @ 415: uvm_test_top.env.act.drv [DRV] AW=52/0/0 W=1875036257/0/0 AR=56/0/1 BREADY=0 RREADY=1
UVM_INFO sequences.sv(53) @ 415: uvm_test_top.env.act.sqr@@aw_w [SEQ] AWADDR=24,AWPROT=0,AWVALID=0,WDATA=115447241,WSTRB=1111,WVALID=1,ARADDR=16,ARPROT=0,ARVALID=0,RREADY=1
UVM_INFO sequences.sv(53) @ 415: uvm_test_top.env.act.sqr@@aw_w [SEQ] AWADDR=24,AWPROT=0,AWVALID=0,WDATA=115447241,WSTRB=1111,WVALID=0,ARADDR=16,ARPROT=0,ARVALID=0,RREADY=1
UVM_INFO scoreboard.sv(272) @ 425: uvm_test_top.env.sc [SCOREBOARD] DUT: BRESP=0, RDATA=0, RRESP=0
REF: BRESP=0, RDATA=0, RRESP=0


UVM_INFO driver.sv(37) @ 425: uvm_test_top.env.act.drv [DRV] AW=24/0/0 W=115447241/1111/0 AR=16/0/0 BREADY=0 RREADY=1
UVM_INFO sequences.sv(53) @ 425: uvm_test_top.env.act.sqr@@rd_b [SEQ] AWADDR=36,AWPROT=0,AWVALID=1,WDATA=4088170937,WSTRB=11,WVALID=0,ARADDR=4,ARPROT=0,ARVALID=0,RREADY=1
UVM_INFO sequences.sv(53) @ 425: uvm_test_top.env.act.sqr@@rd_b [SEQ] AWADDR=36,AWPROT=0,AWVALID=0,WDATA=4088170937,WSTRB=11,WVALID=0,ARADDR=4,ARPROT=0,ARVALID=1,RREADY=1
UVM_INFO driver.sv(37) @ 435: uvm_test_top.env.act.drv [DRV] AW=36/0/0 W=4088170937/11/0 AR=4/0/1 BREADY=1 RREADY=1
UVM_INFO sequences.sv(53) @ 435: uvm_test_top.env.act.sqr@@w_aw [SEQ] AWADDR=32,AWPROT=0,AWVALID=0,WDATA=412236027,WSTRB=0,WVALID=0,ARADDR=8,ARPROT=0,ARVALID=1,RREADY=0
UVM_INFO sequences.sv(53) @ 435: uvm_test_top.env.act.sqr@@w_aw [SEQ] AWADDR=32,AWPROT=0,AWVALID=0,WDATA=412236027,WSTRB=0,WVALID=0,ARADDR=8,ARPROT=0,ARVALID=0,RREADY=0
UVM_INFO scoreboard.sv(272) @ 445: uvm_test_top.env.sc [SCOREBOARD] DUT: BRESP=0, RDATA=0, RRESP=0
REF: BRESP=0, RDATA=0, RRESP=0


UVM_INFO driver.sv(37) @ 445: uvm_test_top.env.act.drv [DRV] AW=32/0/0 W=412236027/0/0 AR=8/0/0 BREADY=1 RREADY=0
UVM_INFO sequences.sv(53) @ 445: uvm_test_top.env.act.sqr@@rd_c [SEQ] AWADDR=60,AWPROT=0,AWVALID=0,WDATA=945804911,WSTRB=1000,WVALID=0,ARADDR=48,ARPROT=0,ARVALID=0,RREADY=1
UVM_INFO sequences.sv(53) @ 445: uvm_test_top.env.act.sqr@@rd_c [SEQ] AWADDR=60,AWPROT=0,AWVALID=0,WDATA=945804911,WSTRB=1000,WVALID=0,ARADDR=48,ARPROT=0,ARVALID=1,RREADY=1
UVM_INFO driver.sv(37) @ 455: uvm_test_top.env.act.drv [DRV] AW=60/0/0 W=945804911/1000/0 AR=48/0/1 BREADY=0 RREADY=1
UVM_INFO sequences.sv(53) @ 455: uvm_test_top.env.act.sqr@@wr_rd [SEQ] AWADDR=24,AWPROT=0,AWVALID=1,WDATA=1948950190,WSTRB=1101,WVALID=1,ARADDR=0,ARPROT=0,ARVALID=0,RREADY=0
UVM_INFO sequences.sv(53) @ 455: uvm_test_top.env.act.sqr@@wr_rd [SEQ] AWADDR=24,AWPROT=0,AWVALID=1,WDATA=1948950190,WSTRB=1101,WVALID=1,ARADDR=0,ARPROT=0,ARVALID=1,RREADY=0
UVM_INFO scoreboard.sv(272) @ 465: uvm_test_top.env.sc [SCOREBOARD] DUT: BRESP=0, RDATA=0, RRESP=0
REF: BRESP=0, RDATA=0, RRESP=0


UVM_INFO driver.sv(37) @ 465: uvm_test_top.env.act.drv [DRV] AW=24/0/1 W=1948950190/1101/1 AR=0/0/1 BREADY=1 RREADY=0
UVM_INFO sequences.sv(53) @ 465: uvm_test_top.env.act.sqr@@seq [SEQ] AWADDR=28,AWPROT=0,AWVALID=1,WDATA=1183513156,WSTRB=1000,WVALID=1,ARADDR=56,ARPROT=0,ARVALID=0,RREADY=0
UVM_INFO driver.sv(37) @ 475: uvm_test_top.env.act.drv [DRV] AW=28/0/1 W=1183513156/1000/1 AR=56/0/0 BREADY=0 RREADY=0
UVM_INFO sequences.sv(53) @ 475: uvm_test_top.env.act.sqr@@wr_simul [SEQ] AWADDR=20,AWPROT=0,AWVALID=1,WDATA=309830261,WSTRB=0,WVALID=1,ARADDR=16,ARPROT=0,ARVALID=0,RREADY=0
UVM_INFO sequences.sv(53) @ 475: uvm_test_top.env.act.sqr@@wr_simul [SEQ] AWADDR=20,AWPROT=0,AWVALID=1,WDATA=309830261,WSTRB=0,WVALID=1,ARADDR=16,ARPROT=0,ARVALID=0,RREADY=0
UVM_INFO driver.sv(37) @ 485: uvm_test_top.env.act.drv [DRV] AW=20/0/1 W=309830261/0/1 AR=16/0/0 BREADY=1 RREADY=0
UVM_INFO sequences.sv(53) @ 485: uvm_test_top.env.act.sqr@@rd_a [SEQ] AWADDR=36,AWPROT=0,AWVALID=0,WDATA=968239726,WSTRB=11,WVALID=1,ARADDR=60,ARPROT=0,ARVALID=0,RREADY=0
UVM_INFO sequences.sv(53) @ 485: uvm_test_top.env.act.sqr@@rd_a [SEQ] AWADDR=36,AWPROT=0,AWVALID=0,WDATA=968239726,WSTRB=11,WVALID=0,ARADDR=60,ARPROT=0,ARVALID=1,RREADY=0
UVM_INFO driver.sv(37) @ 495: uvm_test_top.env.act.drv [DRV] AW=36/0/0 W=968239726/11/0 AR=60/0/1 BREADY=0 RREADY=0
UVM_INFO sequences.sv(53) @ 495: uvm_test_top.env.act.sqr@@aw_w [SEQ] AWADDR=44,AWPROT=0,AWVALID=0,WDATA=2813198051,WSTRB=111,WVALID=1,ARADDR=28,ARPROT=0,ARVALID=1,RREADY=1
UVM_INFO sequences.sv(53) @ 495: uvm_test_top.env.act.sqr@@aw_w [SEQ] AWADDR=44,AWPROT=0,AWVALID=0,WDATA=2813198051,WSTRB=111,WVALID=0,ARADDR=28,ARPROT=0,ARVALID=0,RREADY=1
UVM_INFO driver.sv(37) @ 505: uvm_test_top.env.act.drv [DRV] AW=44/0/0 W=2813198051/111/0 AR=28/0/0 BREADY=1 RREADY=1
UVM_INFO sequences.sv(53) @ 505: uvm_test_top.env.act.sqr@@rd_b [SEQ] AWADDR=36,AWPROT=0,AWVALID=1,WDATA=882754500,WSTRB=11,WVALID=1,ARADDR=4,ARPROT=0,ARVALID=1,RREADY=0
UVM_INFO sequences.sv(53) @ 505: uvm_test_top.env.act.sqr@@rd_b [SEQ] AWADDR=36,AWPROT=0,AWVALID=0,WDATA=882754500,WSTRB=11,WVALID=0,ARADDR=4,ARPROT=0,ARVALID=1,RREADY=0
UVM_INFO scoreboard.sv(272) @ 515: uvm_test_top.env.sc [SCOREBOARD] DUT: BRESP=0, RDATA=0, RRESP=0
REF: BRESP=0, RDATA=0, RRESP=0


UVM_INFO scoreboard.sv(272) @ 515: uvm_test_top.env.sc [SCOREBOARD] DUT: BRESP=0, RDATA=0, RRESP=0
REF: BRESP=0, RDATA=0, RRESP=0


UVM_INFO driver.sv(37) @ 515: uvm_test_top.env.act.drv [DRV] AW=36/0/0 W=882754500/11/0 AR=4/0/1 BREADY=0 RREADY=0
UVM_INFO sequences.sv(53) @ 515: uvm_test_top.env.act.sqr@@w_aw [SEQ] AWADDR=28,AWPROT=0,AWVALID=0,WDATA=643464935,WSTRB=100,WVALID=0,ARADDR=8,ARPROT=0,ARVALID=1,RREADY=0
UVM_INFO sequences.sv(53) @ 515: uvm_test_top.env.act.sqr@@w_aw [SEQ] AWADDR=28,AWPROT=0,AWVALID=0,WDATA=643464935,WSTRB=100,WVALID=0,ARADDR=8,ARPROT=0,ARVALID=0,RREADY=0
UVM_INFO driver.sv(37) @ 525: uvm_test_top.env.act.drv [DRV] AW=28/0/0 W=643464935/100/0 AR=8/0/0 BREADY=1 RREADY=0
UVM_INFO sequences.sv(53) @ 525: uvm_test_top.env.act.sqr@@rd_c [SEQ] AWADDR=12,AWPROT=0,AWVALID=0,WDATA=2911966129,WSTRB=1011,WVALID=0,ARADDR=4,ARPROT=0,ARVALID=0,RREADY=1
UVM_INFO sequences.sv(53) @ 525: uvm_test_top.env.act.sqr@@rd_c [SEQ] AWADDR=12,AWPROT=0,AWVALID=0,WDATA=2911966129,WSTRB=1011,WVALID=0,ARADDR=4,ARPROT=0,ARVALID=1,RREADY=1
UVM_INFO driver.sv(37) @ 535: uvm_test_top.env.act.drv [DRV] AW=12/0/0 W=2911966129/1011/0 AR=4/0/1 BREADY=0 RREADY=1
UVM_INFO sequences.sv(53) @ 535: uvm_test_top.env.act.sqr@@wr_rd [SEQ] AWADDR=24,AWPROT=0,AWVALID=1,WDATA=1948950190,WSTRB=1101,WVALID=1,ARADDR=40,ARPROT=0,ARVALID=0,RREADY=0
UVM_INFO sequences.sv(53) @ 535: uvm_test_top.env.act.sqr@@wr_rd [SEQ] AWADDR=24,AWPROT=0,AWVALID=1,WDATA=1948950190,WSTRB=1101,WVALID=1,ARADDR=40,ARPROT=0,ARVALID=1,RREADY=0
UVM_INFO driver.sv(37) @ 545: uvm_test_top.env.act.drv [DRV] AW=24/0/1 W=1948950190/1101/1 AR=40/0/1 BREADY=0 RREADY=0
UVM_INFO sequences.sv(53) @ 545: uvm_test_top.env.act.sqr@@seq [SEQ] AWADDR=28,AWPROT=0,AWVALID=1,WDATA=1183513156,WSTRB=1000,WVALID=1,ARADDR=20,ARPROT=0,ARVALID=1,RREADY=0
UVM_INFO driver.sv(37) @ 555: uvm_test_top.env.act.drv [DRV] AW=28/0/1 W=1183513156/1000/1 AR=20/0/1 BREADY=0 RREADY=0
UVM_INFO sequences.sv(53) @ 555: uvm_test_top.env.act.sqr@@wr_simul [SEQ] AWADDR=20,AWPROT=0,AWVALID=1,WDATA=309830261,WSTRB=0,WVALID=1,ARADDR=16,ARPROT=0,ARVALID=1,RREADY=1
UVM_INFO sequences.sv(53) @ 555: uvm_test_top.env.act.sqr@@wr_simul [SEQ] AWADDR=20,AWPROT=0,AWVALID=1,WDATA=309830261,WSTRB=0,WVALID=1,ARADDR=16,ARPROT=0,ARVALID=0,RREADY=1
UVM_INFO driver.sv(37) @ 565: uvm_test_top.env.act.drv [DRV] AW=20/0/1 W=309830261/0/1 AR=16/0/0 BREADY=1 RREADY=1
UVM_INFO sequences.sv(53) @ 565: uvm_test_top.env.act.sqr@@rd_a [SEQ] AWADDR=16,AWPROT=0,AWVALID=0,WDATA=1465187281,WSTRB=1110,WVALID=1,ARADDR=60,ARPROT=0,ARVALID=1,RREADY=1
UVM_INFO sequences.sv(53) @ 565: uvm_test_top.env.act.sqr@@rd_a [SEQ] AWADDR=16,AWPROT=0,AWVALID=0,WDATA=1465187281,WSTRB=1110,WVALID=0,ARADDR=60,ARPROT=0,ARVALID=1,RREADY=1
UVM_INFO scoreboard.sv(272) @ 575: uvm_test_top.env.sc [SCOREBOARD] DUT: BRESP=0, RDATA=0, RRESP=0
REF: BRESP=0, RDATA=0, RRESP=0


UVM_INFO driver.sv(37) @ 575: uvm_test_top.env.act.drv [DRV] AW=16/0/0 W=1465187281/1110/0 AR=60/0/1 BREADY=0 RREADY=1
UVM_INFO sequences.sv(53) @ 575: uvm_test_top.env.act.sqr@@aw_w [SEQ] AWADDR=44,AWPROT=0,AWVALID=0,WDATA=25286382,WSTRB=1100,WVALID=0,ARADDR=36,ARPROT=0,ARVALID=0,RREADY=1
UVM_INFO sequences.sv(53) @ 575: uvm_test_top.env.act.sqr@@aw_w [SEQ] AWADDR=44,AWPROT=0,AWVALID=0,WDATA=25286382,WSTRB=1100,WVALID=0,ARADDR=36,ARPROT=0,ARVALID=0,RREADY=1
UVM_INFO driver.sv(37) @ 585: uvm_test_top.env.act.drv [DRV] AW=44/0/0 W=25286382/1100/0 AR=36/0/0 BREADY=0 RREADY=1
UVM_INFO sequences.sv(53) @ 585: uvm_test_top.env.act.sqr@@rd_b [SEQ] AWADDR=44,AWPROT=0,AWVALID=0,WDATA=2290576557,WSTRB=1001,WVALID=0,ARADDR=32,ARPROT=0,ARVALID=1,RREADY=0
UVM_INFO sequences.sv(53) @ 585: uvm_test_top.env.act.sqr@@rd_b [SEQ] AWADDR=44,AWPROT=0,AWVALID=0,WDATA=2290576557,WSTRB=1001,WVALID=0,ARADDR=32,ARPROT=0,ARVALID=1,RREADY=0
UVM_INFO driver.sv(37) @ 595: uvm_test_top.env.act.drv [DRV] AW=44/0/0 W=2290576557/1001/0 AR=32/0/1 BREADY=0 RREADY=0
UVM_INFO sequences.sv(53) @ 595: uvm_test_top.env.act.sqr@@w_aw [SEQ] AWADDR=24,AWPROT=0,AWVALID=0,WDATA=1166764026,WSTRB=1,WVALID=1,ARADDR=60,ARPROT=0,ARVALID=0,RREADY=1
UVM_INFO sequences.sv(53) @ 595: uvm_test_top.env.act.sqr@@w_aw [SEQ] AWADDR=24,AWPROT=0,AWVALID=0,WDATA=1166764026,WSTRB=1,WVALID=0,ARADDR=60,ARPROT=0,ARVALID=0,RREADY=1
UVM_INFO driver.sv(37) @ 605: uvm_test_top.env.act.drv [DRV] AW=24/0/0 W=1166764026/1/0 AR=60/0/0 BREADY=0 RREADY=1
UVM_INFO sequences.sv(53) @ 605: uvm_test_top.env.act.sqr@@rd_c [SEQ] AWADDR=28,AWPROT=0,AWVALID=0,WDATA=3118983461,WSTRB=111,WVALID=1,ARADDR=4,ARPROT=0,ARVALID=1,RREADY=1
UVM_INFO sequences.sv(53) @ 605: uvm_test_top.env.act.sqr@@rd_c [SEQ] AWADDR=28,AWPROT=0,AWVALID=0,WDATA=3118983461,WSTRB=111,WVALID=0,ARADDR=4,ARPROT=0,ARVALID=1,RREADY=1
UVM_INFO scoreboard.sv(272) @ 615: uvm_test_top.env.sc [SCOREBOARD] DUT: BRESP=0, RDATA=0, RRESP=0
REF: BRESP=0, RDATA=0, RRESP=0


UVM_INFO driver.sv(37) @ 615: uvm_test_top.env.act.drv [DRV] AW=28/0/0 W=3118983461/111/0 AR=4/0/1 BREADY=1 RREADY=1
UVM_INFO sequences.sv(53) @ 615: uvm_test_top.env.act.sqr@@wr_rd [SEQ] AWADDR=28,AWPROT=0,AWVALID=0,WDATA=3261019834,WSTRB=101,WVALID=1,ARADDR=40,ARPROT=0,ARVALID=1,RREADY=0
UVM_INFO sequences.sv(53) @ 615: uvm_test_top.env.act.sqr@@wr_rd [SEQ] AWADDR=28,AWPROT=0,AWVALID=1,WDATA=3261019834,WSTRB=101,WVALID=1,ARADDR=40,ARPROT=0,ARVALID=1,RREADY=0
UVM_INFO scoreboard.sv(272) @ 625: uvm_test_top.env.sc [SCOREBOARD] DUT: BRESP=0, RDATA=0, RRESP=0
REF: BRESP=0, RDATA=0, RRESP=0


UVM_INFO driver.sv(37) @ 625: uvm_test_top.env.act.drv [DRV] AW=28/0/1 W=3261019834/101/1 AR=40/0/1 BREADY=1 RREADY=0
UVM_INFO sequences.sv(53) @ 625: uvm_test_top.env.act.sqr@@seq [SEQ] AWADDR=28,AWPROT=0,AWVALID=1,WDATA=1183513156,WSTRB=1000,WVALID=1,ARADDR=24,ARPROT=0,ARVALID=1,RREADY=0
UVM_INFO driver.sv(37) @ 635: uvm_test_top.env.act.drv [DRV] AW=28/0/1 W=1183513156/1000/1 AR=24/0/1 BREADY=1 RREADY=0
UVM_INFO sequences.sv(53) @ 635: uvm_test_top.env.act.sqr@@wr_simul [SEQ] AWADDR=20,AWPROT=0,AWVALID=1,WDATA=309830261,WSTRB=0,WVALID=1,ARADDR=40,ARPROT=0,ARVALID=0,RREADY=1
UVM_INFO sequences.sv(53) @ 635: uvm_test_top.env.act.sqr@@wr_simul [SEQ] AWADDR=20,AWPROT=0,AWVALID=1,WDATA=309830261,WSTRB=0,WVALID=1,ARADDR=40,ARPROT=0,ARVALID=0,RREADY=1
UVM_INFO driver.sv(37) @ 645: uvm_test_top.env.act.drv [DRV] AW=20/0/1 W=309830261/0/1 AR=40/0/0 BREADY=1 RREADY=1
UVM_INFO sequences.sv(53) @ 645: uvm_test_top.env.act.sqr@@rd_a [SEQ] AWADDR=0,AWPROT=0,AWVALID=0,WDATA=3409305261,WSTRB=1100,WVALID=1,ARADDR=36,ARPROT=0,ARVALID=1,RREADY=1
UVM_INFO sequences.sv(53) @ 645: uvm_test_top.env.act.sqr@@rd_a [SEQ] AWADDR=0,AWPROT=0,AWVALID=0,WDATA=3409305261,WSTRB=1100,WVALID=0,ARADDR=36,ARPROT=0,ARVALID=1,RREADY=1
UVM_INFO scoreboard.sv(272) @ 655: uvm_test_top.env.sc [SCOREBOARD] DUT: BRESP=0, RDATA=0, RRESP=0
REF: BRESP=0, RDATA=0, RRESP=0


UVM_INFO driver.sv(37) @ 655: uvm_test_top.env.act.drv [DRV] AW=0/0/0 W=3409305261/1100/0 AR=36/0/1 BREADY=0 RREADY=1
UVM_INFO sequences.sv(53) @ 655: uvm_test_top.env.act.sqr@@aw_w [SEQ] AWADDR=52,AWPROT=0,AWVALID=0,WDATA=2149718330,WSTRB=11,WVALID=0,ARADDR=28,ARPROT=0,ARVALID=0,RREADY=1
UVM_INFO sequences.sv(53) @ 655: uvm_test_top.env.act.sqr@@aw_w [SEQ] AWADDR=52,AWPROT=0,AWVALID=0,WDATA=2149718330,WSTRB=11,WVALID=0,ARADDR=28,ARPROT=0,ARVALID=0,RREADY=1
UVM_INFO driver.sv(37) @ 665: uvm_test_top.env.act.drv [DRV] AW=52/0/0 W=2149718330/11/0 AR=28/0/0 BREADY=0 RREADY=1
UVM_INFO sequences.sv(53) @ 665: uvm_test_top.env.act.sqr@@rd_b [SEQ] AWADDR=60,AWPROT=0,AWVALID=1,WDATA=4033315521,WSTRB=110,WVALID=1,ARADDR=32,ARPROT=0,ARVALID=1,RREADY=1
UVM_INFO sequences.sv(53) @ 665: uvm_test_top.env.act.sqr@@rd_b [SEQ] AWADDR=60,AWPROT=0,AWVALID=0,WDATA=4033315521,WSTRB=110,WVALID=0,ARADDR=32,ARPROT=0,ARVALID=1,RREADY=1
UVM_INFO driver.sv(37) @ 675: uvm_test_top.env.act.drv [DRV] AW=60/0/0 W=4033315521/110/0 AR=32/0/1 BREADY=1 RREADY=1
UVM_INFO sequences.sv(53) @ 675: uvm_test_top.env.act.sqr@@w_aw [SEQ] AWADDR=44,AWPROT=0,AWVALID=1,WDATA=325925049,WSTRB=1011,WVALID=1,ARADDR=4,ARPROT=0,ARVALID=1,RREADY=1
UVM_INFO sequences.sv(53) @ 675: uvm_test_top.env.act.sqr@@w_aw [SEQ] AWADDR=44,AWPROT=0,AWVALID=0,WDATA=325925049,WSTRB=1011,WVALID=0,ARADDR=4,ARPROT=0,ARVALID=0,RREADY=1
UVM_INFO scoreboard.sv(272) @ 685: uvm_test_top.env.sc [SCOREBOARD] DUT: BRESP=0, RDATA=0, RRESP=0
REF: BRESP=0, RDATA=0, RRESP=0


UVM_INFO driver.sv(37) @ 685: uvm_test_top.env.act.drv [DRV] AW=44/0/0 W=325925049/1011/0 AR=4/0/0 BREADY=0 RREADY=1
UVM_INFO sequences.sv(53) @ 685: uvm_test_top.env.act.sqr@@rd_c [SEQ] AWADDR=12,AWPROT=0,AWVALID=0,WDATA=661936622,WSTRB=1011,WVALID=1,ARADDR=0,ARPROT=0,ARVALID=1,RREADY=0
UVM_INFO sequences.sv(53) @ 685: uvm_test_top.env.act.sqr@@rd_c [SEQ] AWADDR=12,AWPROT=0,AWVALID=0,WDATA=661936622,WSTRB=1011,WVALID=0,ARADDR=0,ARPROT=0,ARVALID=1,RREADY=0
UVM_INFO scoreboard.sv(272) @ 695: uvm_test_top.env.sc [SCOREBOARD] DUT: BRESP=0, RDATA=0, RRESP=0
REF: BRESP=0, RDATA=0, RRESP=0


UVM_INFO driver.sv(37) @ 695: uvm_test_top.env.act.drv [DRV] AW=12/0/0 W=661936622/1011/0 AR=0/0/1 BREADY=0 RREADY=0
UVM_INFO sequences.sv(53) @ 695: uvm_test_top.env.act.sqr@@wr_rd [SEQ] AWADDR=36,AWPROT=0,AWVALID=1,WDATA=1206115569,WSTRB=100,WVALID=1,ARADDR=20,ARPROT=0,ARVALID=1,RREADY=1
UVM_INFO sequences.sv(53) @ 695: uvm_test_top.env.act.sqr@@wr_rd [SEQ] AWADDR=36,AWPROT=0,AWVALID=1,WDATA=1206115569,WSTRB=100,WVALID=1,ARADDR=20,ARPROT=0,ARVALID=1,RREADY=1
UVM_INFO driver.sv(37) @ 705: uvm_test_top.env.act.drv [DRV] AW=36/0/1 W=1206115569/100/1 AR=20/0/1 BREADY=0 RREADY=1
UVM_INFO sequences.sv(53) @ 705: uvm_test_top.env.act.sqr@@seq [SEQ] AWADDR=28,AWPROT=0,AWVALID=0,WDATA=1891265181,WSTRB=101,WVALID=0,ARADDR=44,ARPROT=0,ARVALID=1,RREADY=1
UVM_INFO driver.sv(37) @ 715: uvm_test_top.env.act.drv [DRV] AW=28/0/0 W=1891265181/101/0 AR=44/0/1 BREADY=1 RREADY=1
UVM_INFO sequences.sv(53) @ 715: uvm_test_top.env.act.sqr@@wr_simul [SEQ] AWADDR=20,AWPROT=0,AWVALID=1,WDATA=309830261,WSTRB=0,WVALID=1,ARADDR=56,ARPROT=0,ARVALID=0,RREADY=0
UVM_INFO sequences.sv(53) @ 715: uvm_test_top.env.act.sqr@@wr_simul [SEQ] AWADDR=20,AWPROT=0,AWVALID=1,WDATA=309830261,WSTRB=0,WVALID=1,ARADDR=56,ARPROT=0,ARVALID=0,RREADY=0
UVM_INFO scoreboard.sv(272) @ 725: uvm_test_top.env.sc [SCOREBOARD] DUT: BRESP=0, RDATA=0, RRESP=0
REF: BRESP=0, RDATA=0, RRESP=0


UVM_INFO driver.sv(37) @ 725: uvm_test_top.env.act.drv [DRV] AW=20/0/1 W=309830261/0/1 AR=56/0/0 BREADY=0 RREADY=0
UVM_INFO sequences.sv(53) @ 725: uvm_test_top.env.act.sqr@@rd_a [SEQ] AWADDR=16,AWPROT=0,AWVALID=0,WDATA=1448212813,WSTRB=110,WVALID=0,ARADDR=20,ARPROT=0,ARVALID=1,RREADY=0
UVM_INFO sequences.sv(53) @ 725: uvm_test_top.env.act.sqr@@rd_a [SEQ] AWADDR=16,AWPROT=0,AWVALID=0,WDATA=1448212813,WSTRB=110,WVALID=0,ARADDR=20,ARPROT=0,ARVALID=1,RREADY=0
UVM_INFO driver.sv(37) @ 735: uvm_test_top.env.act.drv [DRV] AW=16/0/0 W=1448212813/110/0 AR=20/0/1 BREADY=0 RREADY=0
UVM_INFO sequences.sv(53) @ 735: uvm_test_top.env.act.sqr@@aw_w [SEQ] AWADDR=8,AWPROT=0,AWVALID=0,WDATA=1630003228,WSTRB=1,WVALID=0,ARADDR=56,ARPROT=0,ARVALID=1,RREADY=1
UVM_INFO sequences.sv(53) @ 735: uvm_test_top.env.act.sqr@@aw_w [SEQ] AWADDR=8,AWPROT=0,AWVALID=0,WDATA=1630003228,WSTRB=1,WVALID=0,ARADDR=56,ARPROT=0,ARVALID=0,RREADY=1
UVM_INFO driver.sv(37) @ 745: uvm_test_top.env.act.drv [DRV] AW=8/0/0 W=1630003228/1/0 AR=56/0/0 BREADY=1 RREADY=1
UVM_INFO sequences.sv(53) @ 745: uvm_test_top.env.act.sqr@@rd_b [SEQ] AWADDR=8,AWPROT=0,AWVALID=1,WDATA=3676295396,WSTRB=10,WVALID=0,ARADDR=32,ARPROT=0,ARVALID=1,RREADY=1
UVM_INFO sequences.sv(53) @ 745: uvm_test_top.env.act.sqr@@rd_b [SEQ] AWADDR=8,AWPROT=0,AWVALID=0,WDATA=3676295396,WSTRB=10,WVALID=0,ARADDR=32,ARPROT=0,ARVALID=1,RREADY=1
UVM_INFO scoreboard.sv(272) @ 755: uvm_test_top.env.sc [SCOREBOARD] DUT: BRESP=0, RDATA=0, RRESP=0
REF: BRESP=0, RDATA=0, RRESP=0


UVM_INFO scoreboard.sv(272) @ 755: uvm_test_top.env.sc [SCOREBOARD] DUT: BRESP=0, RDATA=0, RRESP=0
REF: BRESP=0, RDATA=0, RRESP=0


UVM_INFO driver.sv(37) @ 755: uvm_test_top.env.act.drv [DRV] AW=8/0/0 W=3676295396/10/0 AR=32/0/1 BREADY=0 RREADY=1
UVM_INFO sequences.sv(53) @ 755: uvm_test_top.env.act.sqr@@w_aw [SEQ] AWADDR=28,AWPROT=0,AWVALID=1,WDATA=2990853933,WSTRB=1,WVALID=0,ARADDR=32,ARPROT=0,ARVALID=1,RREADY=1
UVM_INFO sequences.sv(53) @ 755: uvm_test_top.env.act.sqr@@w_aw [SEQ] AWADDR=28,AWPROT=0,AWVALID=0,WDATA=2990853933,WSTRB=1,WVALID=0,ARADDR=32,ARPROT=0,ARVALID=0,RREADY=1
UVM_INFO driver.sv(37) @ 765: uvm_test_top.env.act.drv [DRV] AW=28/0/0 W=2990853933/1/0 AR=32/0/0 BREADY=0 RREADY=1
UVM_INFO sequences.sv(53) @ 765: uvm_test_top.env.act.sqr@@rd_c [SEQ] AWADDR=12,AWPROT=0,AWVALID=1,WDATA=1710435283,WSTRB=1110,WVALID=0,ARADDR=48,ARPROT=0,ARVALID=0,RREADY=0
UVM_INFO sequences.sv(53) @ 765: uvm_test_top.env.act.sqr@@rd_c [SEQ] AWADDR=12,AWPROT=0,AWVALID=0,WDATA=1710435283,WSTRB=1110,WVALID=0,ARADDR=48,ARPROT=0,ARVALID=1,RREADY=0
UVM_INFO driver.sv(37) @ 775: uvm_test_top.env.act.drv [DRV] AW=12/0/0 W=1710435283/1110/0 AR=48/0/1 BREADY=0 RREADY=0
UVM_INFO sequences.sv(53) @ 775: uvm_test_top.env.act.sqr@@wr_rd [SEQ] AWADDR=36,AWPROT=0,AWVALID=1,WDATA=1206115569,WSTRB=100,WVALID=1,ARADDR=24,ARPROT=0,ARVALID=0,RREADY=1
UVM_INFO sequences.sv(53) @ 775: uvm_test_top.env.act.sqr@@wr_rd [SEQ] AWADDR=36,AWPROT=0,AWVALID=1,WDATA=1206115569,WSTRB=100,WVALID=1,ARADDR=24,ARPROT=0,ARVALID=1,RREADY=1
UVM_INFO driver.sv(37) @ 785: uvm_test_top.env.act.drv [DRV] AW=36/0/1 W=1206115569/100/1 AR=24/0/1 BREADY=0 RREADY=1
UVM_INFO sequences.sv(53) @ 785: uvm_test_top.env.act.sqr@@seq [SEQ] AWADDR=16,AWPROT=0,AWVALID=1,WDATA=952434496,WSTRB=0,WVALID=1,ARADDR=44,ARPROT=0,ARVALID=1,RREADY=0
UVM_INFO scoreboard.sv(272) @ 795: uvm_test_top.env.sc [SCOREBOARD] DUT: BRESP=0, RDATA=0, RRESP=0
REF: BRESP=0, RDATA=0, RRESP=0


UVM_INFO driver.sv(37) @ 795: uvm_test_top.env.act.drv [DRV] AW=16/0/1 W=952434496/0/1 AR=44/0/1 BREADY=0 RREADY=0
UVM_INFO sequences.sv(53) @ 795: uvm_test_top.env.act.sqr@@wr_simul [SEQ] AWADDR=20,AWPROT=0,AWVALID=1,WDATA=309830261,WSTRB=0,WVALID=1,ARADDR=24,ARPROT=0,ARVALID=0,RREADY=0
UVM_INFO sequences.sv(53) @ 795: uvm_test_top.env.act.sqr@@wr_simul [SEQ] AWADDR=20,AWPROT=0,AWVALID=1,WDATA=309830261,WSTRB=0,WVALID=1,ARADDR=24,ARPROT=0,ARVALID=0,RREADY=0
UVM_INFO driver.sv(37) @ 805: uvm_test_top.env.act.drv [DRV] AW=20/0/1 W=309830261/0/1 AR=24/0/0 BREADY=0 RREADY=0
UVM_INFO sequences.sv(53) @ 805: uvm_test_top.env.act.sqr@@rd_a [SEQ] AWADDR=28,AWPROT=0,AWVALID=0,WDATA=2131615919,WSTRB=1000,WVALID=1,ARADDR=32,ARPROT=0,ARVALID=0,RREADY=1
UVM_INFO sequences.sv(53) @ 805: uvm_test_top.env.act.sqr@@rd_a [SEQ] AWADDR=28,AWPROT=0,AWVALID=0,WDATA=2131615919,WSTRB=1000,WVALID=0,ARADDR=32,ARPROT=0,ARVALID=1,RREADY=1
UVM_INFO driver.sv(37) @ 815: uvm_test_top.env.act.drv [DRV] AW=28/0/0 W=2131615919/1000/0 AR=32/0/1 BREADY=1 RREADY=1
UVM_INFO sequences.sv(53) @ 815: uvm_test_top.env.act.sqr@@aw_w [SEQ] AWADDR=40,AWPROT=0,AWVALID=1,WDATA=626255923,WSTRB=10,WVALID=1,ARADDR=36,ARPROT=0,ARVALID=0,RREADY=1
UVM_INFO sequences.sv(53) @ 815: uvm_test_top.env.act.sqr@@aw_w [SEQ] AWADDR=40,AWPROT=0,AWVALID=0,WDATA=626255923,WSTRB=10,WVALID=0,ARADDR=36,ARPROT=0,ARVALID=0,RREADY=1
UVM_INFO scoreboard.sv(272) @ 825: uvm_test_top.env.sc [SCOREBOARD] DUT: BRESP=0, RDATA=0, RRESP=0
REF: BRESP=0, RDATA=0, RRESP=0


UVM_INFO driver.sv(37) @ 825: uvm_test_top.env.act.drv [DRV] AW=40/0/0 W=626255923/10/0 AR=36/0/0 BREADY=1 RREADY=1
UVM_INFO sequences.sv(53) @ 825: uvm_test_top.env.act.sqr@@rd_b [SEQ] AWADDR=24,AWPROT=0,AWVALID=1,WDATA=1590342833,WSTRB=101,WVALID=1,ARADDR=4,ARPROT=0,ARVALID=1,RREADY=1
UVM_INFO sequences.sv(53) @ 825: uvm_test_top.env.act.sqr@@rd_b [SEQ] AWADDR=24,AWPROT=0,AWVALID=0,WDATA=1590342833,WSTRB=101,WVALID=0,ARADDR=4,ARPROT=0,ARVALID=1,RREADY=1
UVM_INFO scoreboard.sv(272) @ 835: uvm_test_top.env.sc [SCOREBOARD] DUT: BRESP=0, RDATA=0, RRESP=0
REF: BRESP=0, RDATA=0, RRESP=0


UVM_INFO driver.sv(37) @ 835: uvm_test_top.env.act.drv [DRV] AW=24/0/0 W=1590342833/101/0 AR=4/0/1 BREADY=1 RREADY=1
UVM_INFO sequences.sv(53) @ 835: uvm_test_top.env.act.sqr@@w_aw [SEQ] AWADDR=40,AWPROT=0,AWVALID=1,WDATA=3024390516,WSTRB=1101,WVALID=1,ARADDR=56,ARPROT=0,ARVALID=1,RREADY=1
UVM_INFO sequences.sv(53) @ 835: uvm_test_top.env.act.sqr@@w_aw [SEQ] AWADDR=40,AWPROT=0,AWVALID=0,WDATA=3024390516,WSTRB=1101,WVALID=0,ARADDR=56,ARPROT=0,ARVALID=0,RREADY=1
UVM_INFO driver.sv(37) @ 845: uvm_test_top.env.act.drv [DRV] AW=40/0/0 W=3024390516/1101/0 AR=56/0/0 BREADY=1 RREADY=1
UVM_INFO sequences.sv(53) @ 845: uvm_test_top.env.act.sqr@@rd_c [SEQ] AWADDR=16,AWPROT=0,AWVALID=0,WDATA=2481652605,WSTRB=1100,WVALID=0,ARADDR=48,ARPROT=0,ARVALID=1,RREADY=1
UVM_INFO sequences.sv(53) @ 845: uvm_test_top.env.act.sqr@@rd_c [SEQ] AWADDR=16,AWPROT=0,AWVALID=0,WDATA=2481652605,WSTRB=1100,WVALID=0,ARADDR=48,ARPROT=0,ARVALID=1,RREADY=1
UVM_INFO driver.sv(37) @ 855: uvm_test_top.env.act.drv [DRV] AW=16/0/0 W=2481652605/1100/0 AR=48/0/1 BREADY=1 RREADY=1
UVM_INFO sequences.sv(53) @ 855: uvm_test_top.env.act.sqr@@wr_rd [SEQ] AWADDR=32,AWPROT=0,AWVALID=1,WDATA=2025690597,WSTRB=1011,WVALID=1,ARADDR=48,ARPROT=0,ARVALID=1,RREADY=1
UVM_INFO sequences.sv(53) @ 855: uvm_test_top.env.act.sqr@@wr_rd [SEQ] AWADDR=32,AWPROT=0,AWVALID=1,WDATA=2025690597,WSTRB=1011,WVALID=1,ARADDR=48,ARPROT=0,ARVALID=1,RREADY=1
UVM_INFO driver.sv(37) @ 865: uvm_test_top.env.act.drv [DRV] AW=32/0/1 W=2025690597/1011/1 AR=48/0/1 BREADY=1 RREADY=1
UVM_INFO sequences.sv(53) @ 865: uvm_test_top.env.act.sqr@@seq [SEQ] AWADDR=16,AWPROT=0,AWVALID=1,WDATA=952434496,WSTRB=0,WVALID=1,ARADDR=48,ARPROT=0,ARVALID=0,RREADY=0
UVM_INFO scoreboard.sv(272) @ 875: uvm_test_top.env.sc [SCOREBOARD] DUT: BRESP=0, RDATA=0, RRESP=0
REF: BRESP=0, RDATA=0, RRESP=0


UVM_INFO driver.sv(37) @ 875: uvm_test_top.env.act.drv [DRV] AW=16/0/1 W=952434496/0/1 AR=48/0/0 BREADY=1 RREADY=0
UVM_INFO sequences.sv(53) @ 875: uvm_test_top.env.act.sqr@@wr_simul [SEQ] AWADDR=20,AWPROT=0,AWVALID=1,WDATA=309830261,WSTRB=0,WVALID=1,ARADDR=24,ARPROT=0,ARVALID=0,RREADY=1
UVM_INFO sequences.sv(53) @ 875: uvm_test_top.env.act.sqr@@wr_simul [SEQ] AWADDR=20,AWPROT=0,AWVALID=1,WDATA=309830261,WSTRB=0,WVALID=1,ARADDR=24,ARPROT=0,ARVALID=0,RREADY=1
UVM_INFO driver.sv(37) @ 885: uvm_test_top.env.act.drv [DRV] AW=20/0/1 W=309830261/0/1 AR=24/0/0 BREADY=0 RREADY=1
UVM_INFO sequences.sv(53) @ 885: uvm_test_top.env.act.sqr@@rd_a [SEQ] AWADDR=44,AWPROT=0,AWVALID=1,WDATA=3268286287,WSTRB=100,WVALID=0,ARADDR=32,ARPROT=0,ARVALID=1,RREADY=0
UVM_INFO sequences.sv(53) @ 885: uvm_test_top.env.act.sqr@@rd_a [SEQ] AWADDR=44,AWPROT=0,AWVALID=0,WDATA=3268286287,WSTRB=100,WVALID=0,ARADDR=32,ARPROT=0,ARVALID=1,RREADY=0
UVM_INFO driver.sv(37) @ 895: uvm_test_top.env.act.drv [DRV] AW=44/0/0 W=3268286287/100/0 AR=32/0/1 BREADY=1 RREADY=0
UVM_INFO sequences.sv(53) @ 895: uvm_test_top.env.act.sqr@@aw_w [SEQ] AWADDR=28,AWPROT=0,AWVALID=0,WDATA=2792040893,WSTRB=1,WVALID=0,ARADDR=4,ARPROT=0,ARVALID=0,RREADY=0
UVM_INFO sequences.sv(53) @ 895: uvm_test_top.env.act.sqr@@aw_w [SEQ] AWADDR=28,AWPROT=0,AWVALID=0,WDATA=2792040893,WSTRB=1,WVALID=0,ARADDR=4,ARPROT=0,ARVALID=0,RREADY=0
UVM_INFO scoreboard.sv(272) @ 905: uvm_test_top.env.sc [SCOREBOARD] DUT: BRESP=0, RDATA=0, RRESP=0
REF: BRESP=0, RDATA=0, RRESP=0


UVM_INFO driver.sv(37) @ 905: uvm_test_top.env.act.drv [DRV] AW=28/0/0 W=2792040893/1/0 AR=4/0/0 BREADY=1 RREADY=0
UVM_INFO sequences.sv(53) @ 905: uvm_test_top.env.act.sqr@@rd_b [SEQ] AWADDR=48,AWPROT=0,AWVALID=0,WDATA=3971288627,WSTRB=10,WVALID=1,ARADDR=48,ARPROT=0,ARVALID=1,RREADY=1
UVM_INFO sequences.sv(53) @ 905: uvm_test_top.env.act.sqr@@rd_b [SEQ] AWADDR=48,AWPROT=0,AWVALID=0,WDATA=3971288627,WSTRB=10,WVALID=0,ARADDR=48,ARPROT=0,ARVALID=1,RREADY=1
UVM_INFO driver.sv(37) @ 915: uvm_test_top.env.act.drv [DRV] AW=48/0/0 W=3971288627/10/0 AR=48/0/1 BREADY=1 RREADY=1
UVM_INFO sequences.sv(53) @ 915: uvm_test_top.env.act.sqr@@w_aw [SEQ] AWADDR=8,AWPROT=0,AWVALID=0,WDATA=1703947535,WSTRB=1010,WVALID=1,ARADDR=24,ARPROT=0,ARVALID=1,RREADY=1
UVM_INFO sequences.sv(53) @ 915: uvm_test_top.env.act.sqr@@w_aw [SEQ] AWADDR=8,AWPROT=0,AWVALID=1,WDATA=1703947535,WSTRB=1010,WVALID=0,ARADDR=24,ARPROT=0,ARVALID=0,RREADY=1
UVM_INFO scoreboard.sv(278) @ 925: uvm_test_top.env.sc [SCOREBOARD] DUT: BRESP=0, RDATA=0, RRESP=0
REF: BRESP=0, RDATA=780095e5, RRESP=0
_______________________________________________________________________________________________________________________
_
UVM_INFO driver.sv(37) @ 925: uvm_test_top.env.act.drv [DRV] AW=8/0/1 W=1703947535/1010/0 AR=24/0/0 BREADY=0 RREADY=1
UVM_INFO sequences.sv(53) @ 925: uvm_test_top.env.act.sqr@@rd_c [SEQ] AWADDR=32,AWPROT=0,AWVALID=0,WDATA=2241064374,WSTRB=1,WVALID=0,ARADDR=48,ARPROT=0,ARVALID=1,RREADY=0
UVM_INFO sequences.sv(53) @ 925: uvm_test_top.env.act.sqr@@rd_c [SEQ] AWADDR=32,AWPROT=0,AWVALID=0,WDATA=2241064374,WSTRB=1,WVALID=0,ARADDR=48,ARPROT=0,ARVALID=1,RREADY=0
UVM_INFO driver.sv(37) @ 935: uvm_test_top.env.act.drv [DRV] AW=32/0/0 W=2241064374/1/0 AR=48/0/1 BREADY=1 RREADY=0
UVM_INFO sequences.sv(53) @ 935: uvm_test_top.env.act.sqr@@wr_rd [SEQ] AWADDR=24,AWPROT=0,AWVALID=1,WDATA=1960051762,WSTRB=1001,WVALID=0,ARADDR=28,ARPROT=0,ARVALID=1,RREADY=1
UVM_INFO sequences.sv(53) @ 935: uvm_test_top.env.act.sqr@@wr_rd [SEQ] AWADDR=24,AWPROT=0,AWVALID=1,WDATA=1960051762,WSTRB=1001,WVALID=1,ARADDR=28,ARPROT=0,ARVALID=1,RREADY=1
UVM_INFO driver.sv(37) @ 945: uvm_test_top.env.act.drv [DRV] AW=24/0/1 W=1960051762/1001/1 AR=28/0/1 BREADY=1 RREADY=1
UVM_INFO sequences.sv(53) @ 945: uvm_test_top.env.act.sqr@@seq [SEQ] AWADDR=16,AWPROT=0,AWVALID=1,WDATA=952434496,WSTRB=0,WVALID=1,ARADDR=24,ARPROT=0,ARVALID=1,RREADY=1
UVM_INFO scoreboard.sv(272) @ 955: uvm_test_top.env.sc [SCOREBOARD] DUT: BRESP=0, RDATA=0, RRESP=0
REF: BRESP=0, RDATA=0, RRESP=0


UVM_INFO driver.sv(37) @ 955: uvm_test_top.env.act.drv [DRV] AW=16/0/1 W=952434496/0/1 AR=24/0/1 BREADY=1 RREADY=1
UVM_INFO sequences.sv(53) @ 955: uvm_test_top.env.act.sqr@@wr_simul [SEQ] AWADDR=20,AWPROT=0,AWVALID=1,WDATA=309830261,WSTRB=0,WVALID=1,ARADDR=48,ARPROT=0,ARVALID=0,RREADY=1
UVM_INFO sequences.sv(53) @ 955: uvm_test_top.env.act.sqr@@wr_simul [SEQ] AWADDR=20,AWPROT=0,AWVALID=1,WDATA=309830261,WSTRB=0,WVALID=1,ARADDR=48,ARPROT=0,ARVALID=0,RREADY=1
UVM_INFO driver.sv(37) @ 965: uvm_test_top.env.act.drv [DRV] AW=20/0/1 W=309830261/0/1 AR=48/0/0 BREADY=0 RREADY=1
UVM_INFO sequences.sv(53) @ 965: uvm_test_top.env.act.sqr@@rd_a [SEQ] AWADDR=40,AWPROT=0,AWVALID=1,WDATA=2873326780,WSTRB=0,WVALID=0,ARADDR=32,ARPROT=0,ARVALID=1,RREADY=1
UVM_INFO sequences.sv(53) @ 965: uvm_test_top.env.act.sqr@@rd_a [SEQ] AWADDR=40,AWPROT=0,AWVALID=0,WDATA=2873326780,WSTRB=0,WVALID=0,ARADDR=32,ARPROT=0,ARVALID=1,RREADY=1
UVM_INFO driver.sv(37) @ 975: uvm_test_top.env.act.drv [DRV] AW=40/0/0 W=2873326780/0/0 AR=32/0/1 BREADY=0 RREADY=1
UVM_INFO sequences.sv(53) @ 975: uvm_test_top.env.act.sqr@@aw_w [SEQ] AWADDR=20,AWPROT=0,AWVALID=1,WDATA=962223551,WSTRB=10,WVALID=1,ARADDR=0,ARPROT=0,ARVALID=1,RREADY=1
UVM_INFO sequences.sv(53) @ 975: uvm_test_top.env.act.sqr@@aw_w [SEQ] AWADDR=20,AWPROT=0,AWVALID=0,WDATA=962223551,WSTRB=10,WVALID=0,ARADDR=0,ARPROT=0,ARVALID=0,RREADY=1
UVM_INFO driver.sv(37) @ 985: uvm_test_top.env.act.drv [DRV] AW=20/0/0 W=962223551/10/0 AR=0/0/0 BREADY=0 RREADY=1
UVM_INFO sequences.sv(53) @ 985: uvm_test_top.env.act.sqr@@rd_b [SEQ] AWADDR=24,AWPROT=0,AWVALID=0,WDATA=3554626493,WSTRB=1110,WVALID=1,ARADDR=28,ARPROT=0,ARVALID=1,RREADY=0
UVM_INFO sequences.sv(53) @ 985: uvm_test_top.env.act.sqr@@rd_b [SEQ] AWADDR=24,AWPROT=0,AWVALID=0,WDATA=3554626493,WSTRB=1110,WVALID=0,ARADDR=28,ARPROT=0,ARVALID=1,RREADY=0
UVM_INFO scoreboard.sv(278) @ 995: uvm_test_top.env.sc [SCOREBOARD] DUT: BRESP=0, RDATA=0, RRESP=0
REF: BRESP=0, RDATA=780095e5, RRESP=0
_______________________________________________________________________________________________________________________
_
UVM_INFO driver.sv(37) @ 995: uvm_test_top.env.act.drv [DRV] AW=24/0/0 W=3554626493/1110/0 AR=28/0/1 BREADY=0 RREADY=0
UVM_INFO sequences.sv(53) @ 995: uvm_test_top.env.act.sqr@@w_aw [SEQ] AWADDR=8,AWPROT=0,AWVALID=1,WDATA=2830104987,WSTRB=1011,WVALID=0,ARADDR=8,ARPROT=0,ARVALID=1,RREADY=1
UVM_INFO sequences.sv(53) @ 995: uvm_test_top.env.act.sqr@@w_aw [SEQ] AWADDR=8,AWPROT=0,AWVALID=0,WDATA=2830104987,WSTRB=1011,WVALID=0,ARADDR=8,ARPROT=0,ARVALID=0,RREADY=1
UVM_INFO driver.sv(37) @ 1005: uvm_test_top.env.act.drv [DRV] AW=8/0/0 W=2830104987/1011/0 AR=8/0/0 BREADY=0 RREADY=1
UVM_INFO sequences.sv(53) @ 1005: uvm_test_top.env.act.sqr@@rd_c [SEQ] AWADDR=60,AWPROT=0,AWVALID=1,WDATA=2863502343,WSTRB=100,WVALID=1,ARADDR=0,ARPROT=0,ARVALID=0,RREADY=0
UVM_INFO sequences.sv(53) @ 1005: uvm_test_top.env.act.sqr@@rd_c [SEQ] AWADDR=60,AWPROT=0,AWVALID=0,WDATA=2863502343,WSTRB=100,WVALID=0,ARADDR=0,ARPROT=0,ARVALID=1,RREADY=0
UVM_INFO driver.sv(37) @ 1015: uvm_test_top.env.act.drv [DRV] AW=60/0/0 W=2863502343/100/0 AR=0/0/1 BREADY=0 RREADY=0
UVM_INFO sequences.sv(53) @ 1015: uvm_test_top.env.act.sqr@@wr_rd [SEQ] AWADDR=48,AWPROT=0,AWVALID=0,WDATA=1599120152,WSTRB=1001,WVALID=1,ARADDR=48,ARPROT=0,ARVALID=0,RREADY=0
UVM_INFO sequences.sv(53) @ 1015: uvm_test_top.env.act.sqr@@wr_rd [SEQ] AWADDR=48,AWPROT=0,AWVALID=1,WDATA=1599120152,WSTRB=1001,WVALID=1,ARADDR=48,ARPROT=0,ARVALID=1,RREADY=0
UVM_INFO driver.sv(37) @ 1025: uvm_test_top.env.act.drv [DRV] AW=48/0/1 W=1599120152/1001/1 AR=48/0/1 BREADY=1 RREADY=0
UVM_INFO sequences.sv(53) @ 1025: uvm_test_top.env.act.sqr@@seq [SEQ] AWADDR=16,AWPROT=0,AWVALID=1,WDATA=952434496,WSTRB=0,WVALID=1,ARADDR=28,ARPROT=0,ARVALID=0,RREADY=0
UVM_INFO scoreboard.sv(272) @ 1035: uvm_test_top.env.sc [SCOREBOARD] DUT: BRESP=0, RDATA=0, RRESP=0
REF: BRESP=0, RDATA=0, RRESP=0


UVM_INFO driver.sv(37) @ 1035: uvm_test_top.env.act.drv [DRV] AW=16/0/1 W=952434496/0/1 AR=28/0/0 BREADY=0 RREADY=0
UVM_INFO sequences.sv(53) @ 1035: uvm_test_top.env.act.sqr@@wr_simul [SEQ] AWADDR=20,AWPROT=0,AWVALID=1,WDATA=309830261,WSTRB=0,WVALID=1,ARADDR=28,ARPROT=0,ARVALID=1,RREADY=0
UVM_INFO sequences.sv(53) @ 1035: uvm_test_top.env.act.sqr@@wr_simul [SEQ] AWADDR=20,AWPROT=0,AWVALID=1,WDATA=309830261,WSTRB=0,WVALID=1,ARADDR=28,ARPROT=0,ARVALID=0,RREADY=0
UVM_INFO driver.sv(37) @ 1045: uvm_test_top.env.act.drv [DRV] AW=20/0/1 W=309830261/0/1 AR=28/0/0 BREADY=1 RREADY=0
UVM_INFO sequences.sv(53) @ 1045: uvm_test_top.env.act.sqr@@rd_a [SEQ] AWADDR=16,AWPROT=0,AWVALID=1,WDATA=906401603,WSTRB=1,WVALID=0,ARADDR=32,ARPROT=0,ARVALID=1,RREADY=0
UVM_INFO sequences.sv(53) @ 1045: uvm_test_top.env.act.sqr@@rd_a [SEQ] AWADDR=16,AWPROT=0,AWVALID=0,WDATA=906401603,WSTRB=1,WVALID=0,ARADDR=32,ARPROT=0,ARVALID=1,RREADY=0
UVM_INFO driver.sv(37) @ 1055: uvm_test_top.env.act.drv [DRV] AW=16/0/0 W=906401603/1/0 AR=32/0/1 BREADY=1 RREADY=0
UVM_INFO sequences.sv(53) @ 1055: uvm_test_top.env.act.sqr@@aw_w [SEQ] AWADDR=16,AWPROT=0,AWVALID=1,WDATA=730113677,WSTRB=1101,WVALID=1,ARADDR=48,ARPROT=0,ARVALID=1,RREADY=0
UVM_INFO sequences.sv(53) @ 1055: uvm_test_top.env.act.sqr@@aw_w [SEQ] AWADDR=16,AWPROT=0,AWVALID=0,WDATA=730113677,WSTRB=1101,WVALID=0,ARADDR=48,ARPROT=0,ARVALID=0,RREADY=0
UVM_INFO driver.sv(37) @ 1065: uvm_test_top.env.act.drv [DRV] AW=16/0/0 W=730113677/1101/0 AR=48/0/0 BREADY=1 RREADY=0
UVM_INFO sequences.sv(53) @ 1065: uvm_test_top.env.act.sqr@@rd_b [SEQ] AWADDR=20,AWPROT=0,AWVALID=1,WDATA=3808599211,WSTRB=1110,WVALID=0,ARADDR=56,ARPROT=0,ARVALID=1,RREADY=1
UVM_INFO sequences.sv(53) @ 1065: uvm_test_top.env.act.sqr@@rd_b [SEQ] AWADDR=20,AWPROT=0,AWVALID=0,WDATA=3808599211,WSTRB=1110,WVALID=0,ARADDR=56,ARPROT=0,ARVALID=1,RREADY=1
UVM_INFO scoreboard.sv(272) @ 1075: uvm_test_top.env.sc [SCOREBOARD] DUT: BRESP=0, RDATA=0, RRESP=0
REF: BRESP=0, RDATA=0, RRESP=0


UVM_INFO driver.sv(37) @ 1075: uvm_test_top.env.act.drv [DRV] AW=20/0/0 W=3808599211/1110/0 AR=56/0/1 BREADY=1 RREADY=1
UVM_INFO sequences.sv(53) @ 1075: uvm_test_top.env.act.sqr@@w_aw [SEQ] AWADDR=8,AWPROT=0,AWVALID=0,WDATA=3141310266,WSTRB=100,WVALID=0,ARADDR=24,ARPROT=0,ARVALID=1,RREADY=0
UVM_INFO sequences.sv(53) @ 1075: uvm_test_top.env.act.sqr@@w_aw [SEQ] AWADDR=8,AWPROT=0,AWVALID=0,WDATA=3141310266,WSTRB=100,WVALID=0,ARADDR=24,ARPROT=0,ARVALID=0,RREADY=0
UVM_INFO scoreboard.sv(272) @ 1085: uvm_test_top.env.sc [SCOREBOARD] DUT: BRESP=0, RDATA=0, RRESP=0
REF: BRESP=0, RDATA=0, RRESP=0


UVM_INFO driver.sv(37) @ 1085: uvm_test_top.env.act.drv [DRV] AW=8/0/0 W=3141310266/100/0 AR=24/0/0 BREADY=0 RREADY=0
