Command: /fetools/work_area/frontend/Batch_11/rakshanshetty/systemverilog/UVM_AXI4_LITE/./simv -cm line+cond+fsm+tgl+branch+assert +UVM_TESTNAME=test +UVM_TIMEOUT=5000000 +UVM_OBJECTION_TRACE -l simulation.log
Chronologic VCS simulator copyright 1991-2020
Contains Synopsys proprietary information.
Compiler version Q-2020.03-SP2-8_Full64; Runtime version Q-2020.03-SP2-8_Full64;  Sep 23 15:37 2026
UVM_INFO /fetools/synopsys/installed_tools/vcs/vcs/Q-2020.03-SP2-8/etc/uvm-1.2/base/uvm_root.svh(402) @ 0: reporter [UVM/RELNOTES] 
----------------------------------------------------------------
UVM-1.2.Synopsys
(C) 2007-2014 Mentor Graphics Corporation
(C) 2007-2014 Cadence Design Systems, Inc.
(C) 2006-2014 Synopsys, Inc.
(C) 2011-2013 Cypress Semiconductor Corp.
(C) 2013-2014 NVIDIA Corporation
----------------------------------------------------------------

  ***********       IMPORTANT RELEASE NOTES         ************

  You are using a version of the UVM library that has been compiled
  with `UVM_NO_DEPRECATED undefined.
  See http://www.eda.org/svdb/view.php?id=3313 for more details.

  You are using a version of the UVM library that has been compiled
  with `UVM_OBJECT_DO_NOT_NEED_CONSTRUCTOR undefined.
  See http://www.eda.org/svdb/view.php?id=3770 for more details.

      (Specify +UVM_NO_RELNOTES to turn off this notice)

UVM_INFO @ 0: reporter [RNTST] Running test test...
UVM_INFO @ 0: reporter [TIMOUTSET] '+UVM_TIMEOUT=5000000' provided on the command line is being applied.
UVM_INFO /fetools/synopsys/installed_tools/vcs/vcs/Q-2020.03-SP2-8/etc/uvm-1.2/base/uvm_root.svh(589) @ 0: reporter [UVMTOP] UVM testbench topology:
--------------------------------------------------------------
Name                       Type                    Size  Value
--------------------------------------------------------------
uvm_test_top               test                    -     @341 
  env                      environment             -     @361 
    act                    agent                   -     @370 
      drv                  driver                  -     @458 
        rsp_port           uvm_analysis_port       -     @477 
        seq_item_port      uvm_seq_item_pull_port  -     @467 
      mon                  monitor                 -     @438 
        ap                 uvm_analysis_port       -     @447 
      sqr                  uvm_sequencer           -     @487 
        rsp_export         uvm_analysis_export     -     @496 
        seq_item_export    uvm_seq_item_pull_imp   -     @614 
        arbitration_queue  array                   0     -    
        lock_queue         array                   0     -    
        num_last_reqs      integral                32    'd1  
        num_last_rsps      integral                32    'd1  
    pass                   agent                   -     @379 
      mon                  monitor                 -     @633 
        ap                 uvm_analysis_port       -     @642 
    sc                     scoreboard              -     @388 
      in_mon               uvm_analysis_imp        -     @397 
      out_mon              uvm_analysis_imp_out    -     @407 
    sub                    subscriber              -     @417 
      analysis_imp         uvm_analysis_imp        -     @426 
      out_mon              uvm_analysis_imp_out    -     @654 
--------------------------------------------------------------

UVM_INFO @ 0: run [OBJTN_TRC] Object uvm_test_top raised 1 objection(s): count=1  total=1
UVM_INFO @ 0: run [OBJTN_TRC] Object uvm_top added 1 objection(s) to its total (raised from source object uvm_test_top): count=0  total=1
UVM_INFO sequences.sv(53) @ 0: uvm_test_top.env.act.sqr@@seq [SEQ] AWADDR=44,AWPROT=0,AWVALID=0,WDATA=2944509091,WSTRB=101,WVALID=0,ARADDR=48,ARPROT=0,ARVALID=0,RREADY=1
UVM_INFO driver.sv(37) @ 5: uvm_test_top.env.act.drv [DRV] AW=44/0/0 W=2944509091/101/0 AR=48/0/0 BREADY=0 RREADY=1
UVM_INFO sequences.sv(53) @ 5: uvm_test_top.env.act.sqr@@rd_a [SEQ] AWADDR=0,AWPROT=0,AWVALID=1,WDATA=869293862,WSTRB=1010,WVALID=0,ARADDR=24,ARPROT=0,ARVALID=1,RREADY=1
UVM_INFO sequences.sv(53) @ 5: uvm_test_top.env.act.sqr@@rd_a [SEQ] AWADDR=0,AWPROT=0,AWVALID=0,WDATA=869293862,WSTRB=1010,WVALID=0,ARADDR=24,ARPROT=0,ARVALID=1,RREADY=1
UVM_INFO monitor.sv(52) @ 15: uvm_test_top.env.act.mon [uvm_test_top.env.act.mon] rst=0, AWADDR=44, AWPROT=0, AWVALID=0, WDATA=2944509091, WSTRB=5, WVALID=0, BREADY=0, ARADDR=48, ARPROT=0, ARVALID=0, RREADY=1, AWREADY=0, WREADY=0, BRESP=0, BVALID=0, ARREADY=0, ARPROT=0, RDATA=0, RRESP=0, RVALID=0
UVM_INFO monitor.sv(52) @ 15: uvm_test_top.env.pass.mon [uvm_test_top.env.pass.mon] rst=0, AWADDR=44, AWPROT=0, AWVALID=0, WDATA=2944509091, WSTRB=5, WVALID=0, BREADY=0, ARADDR=48, ARPROT=0, ARVALID=0, RREADY=1, AWREADY=0, WREADY=0, BRESP=0, BVALID=0, ARREADY=0, ARPROT=0, RDATA=0, RRESP=0, RVALID=0
UVM_INFO driver.sv(37) @ 15: uvm_test_top.env.act.drv [DRV] AW=0/0/0 W=869293862/1010/0 AR=24/0/1 BREADY=1 RREADY=1
UVM_INFO sequences.sv(53) @ 15: uvm_test_top.env.act.sqr@@rd_b [SEQ] AWADDR=40,AWPROT=0,AWVALID=0,WDATA=1792067508,WSTRB=1,WVALID=0,ARADDR=20,ARPROT=0,ARVALID=1,RREADY=1
UVM_INFO sequences.sv(53) @ 15: uvm_test_top.env.act.sqr@@rd_b [SEQ] AWADDR=40,AWPROT=0,AWVALID=0,WDATA=1792067508,WSTRB=1,WVALID=0,ARADDR=20,ARPROT=0,ARVALID=1,RREADY=1
UVM_INFO monitor.sv(52) @ 25: uvm_test_top.env.act.mon [uvm_test_top.env.act.mon] rst=0, AWADDR=0, AWPROT=0, AWVALID=0, WDATA=869293862, WSTRB=10, WVALID=0, BREADY=1, ARADDR=24, ARPROT=0, ARVALID=1, RREADY=1, AWREADY=0, WREADY=0, BRESP=0, BVALID=0, ARREADY=0, ARPROT=0, RDATA=0, RRESP=0, RVALID=0
UVM_INFO monitor.sv(52) @ 25: uvm_test_top.env.pass.mon [uvm_test_top.env.pass.mon] rst=0, AWADDR=0, AWPROT=0, AWVALID=0, WDATA=869293862, WSTRB=10, WVALID=0, BREADY=1, ARADDR=24, ARPROT=0, ARVALID=1, RREADY=1, AWREADY=0, WREADY=0, BRESP=0, BVALID=0, ARREADY=0, ARPROT=0, RDATA=0, RRESP=0, RVALID=0
UVM_INFO driver.sv(37) @ 25: uvm_test_top.env.act.drv [DRV] AW=40/0/0 W=1792067508/1/0 AR=20/0/1 BREADY=0 RREADY=1
UVM_INFO scoreboard.sv(233) @ 25: uvm_test_top.env.sc [SCOREBOARD] DUT: BRESP=0, RDATA=0, RRESP=0
REF: BRESP=0, RDATA=0, RRESP=0


UVM_INFO sequences.sv(53) @ 25: uvm_test_top.env.act.sqr@@rd_c [SEQ] AWADDR=44,AWPROT=0,AWVALID=1,WDATA=64193170,WSTRB=1111,WVALID=1,ARADDR=24,ARPROT=0,ARVALID=1,RREADY=0
UVM_INFO sequences.sv(53) @ 25: uvm_test_top.env.act.sqr@@rd_c [SEQ] AWADDR=44,AWPROT=0,AWVALID=0,WDATA=64193170,WSTRB=1111,WVALID=0,ARADDR=24,ARPROT=0,ARVALID=1,RREADY=0
UVM_INFO monitor.sv(52) @ 35: uvm_test_top.env.act.mon [uvm_test_top.env.act.mon] rst=1, AWADDR=40, AWPROT=0, AWVALID=0, WDATA=1792067508, WSTRB=1, WVALID=0, BREADY=0, ARADDR=20, ARPROT=0, ARVALID=1, RREADY=1, AWREADY=0, WREADY=0, BRESP=0, BVALID=0, ARREADY=0, ARPROT=0, RDATA=0, RRESP=0, RVALID=0
UVM_INFO monitor.sv(52) @ 35: uvm_test_top.env.pass.mon [uvm_test_top.env.pass.mon] rst=1, AWADDR=40, AWPROT=0, AWVALID=0, WDATA=1792067508, WSTRB=1, WVALID=0, BREADY=0, ARADDR=20, ARPROT=0, ARVALID=1, RREADY=1, AWREADY=0, WREADY=0, BRESP=0, BVALID=0, ARREADY=0, ARPROT=0, RDATA=0, RRESP=0, RVALID=0
UVM_INFO driver.sv(37) @ 35: uvm_test_top.env.act.drv [DRV] AW=44/0/0 W=64193170/1111/0 AR=24/0/1 BREADY=0 RREADY=0
UVM_INFO scoreboard.sv(233) @ 35: uvm_test_top.env.sc [SCOREBOARD] DUT: BRESP=0, RDATA=0, RRESP=0
REF: BRESP=0, RDATA=0, RRESP=0


UVM_INFO sequences.sv(53) @ 35: uvm_test_top.env.act.sqr@@wr_simul [SEQ] AWADDR=28,AWPROT=0,AWVALID=0,WDATA=4004110301,WSTRB=110,WVALID=1,ARADDR=16,ARPROT=0,ARVALID=0,RREADY=0
UVM_INFO sequences.sv(53) @ 35: uvm_test_top.env.act.sqr@@wr_simul [SEQ] AWADDR=28,AWPROT=0,AWVALID=1,WDATA=4004110301,WSTRB=110,WVALID=1,ARADDR=16,ARPROT=0,ARVALID=0,RREADY=0
UVM_INFO monitor.sv(52) @ 45: uvm_test_top.env.act.mon [uvm_test_top.env.act.mon] rst=1, AWADDR=44, AWPROT=0, AWVALID=0, WDATA=64193170, WSTRB=15, WVALID=0, BREADY=0, ARADDR=24, ARPROT=0, ARVALID=1, RREADY=0, AWREADY=1, WREADY=1, BRESP=0, BVALID=0, ARREADY=1, ARPROT=0, RDATA=0, RRESP=0, RVALID=0
UVM_INFO monitor.sv(52) @ 45: uvm_test_top.env.pass.mon [uvm_test_top.env.pass.mon] rst=1, AWADDR=44, AWPROT=0, AWVALID=0, WDATA=64193170, WSTRB=15, WVALID=0, BREADY=0, ARADDR=24, ARPROT=0, ARVALID=1, RREADY=0, AWREADY=1, WREADY=1, BRESP=0, BVALID=0, ARREADY=1, ARPROT=0, RDATA=0, RRESP=0, RVALID=0
UVM_INFO driver.sv(37) @ 45: uvm_test_top.env.act.drv [DRV] AW=28/0/1 W=4004110301/110/1 AR=16/0/0 BREADY=0 RREADY=0
UVM_INFO scoreboard.sv(233) @ 45: uvm_test_top.env.sc [SCOREBOARD] DUT: BRESP=0, RDATA=0, RRESP=0
REF: BRESP=0, RDATA=0, RRESP=0


UVM_INFO sequences.sv(53) @ 45: uvm_test_top.env.act.sqr@@wr_rd [SEQ] AWADDR=16,AWPROT=0,AWVALID=0,WDATA=1419619327,WSTRB=1011,WVALID=1,ARADDR=28,ARPROT=0,ARVALID=0,RREADY=1
UVM_INFO sequences.sv(53) @ 45: uvm_test_top.env.act.sqr@@wr_rd [SEQ] AWADDR=16,AWPROT=0,AWVALID=1,WDATA=1419619327,WSTRB=1011,WVALID=1,ARADDR=28,ARPROT=0,ARVALID=1,RREADY=1
UVM_INFO monitor.sv(52) @ 55: uvm_test_top.env.act.mon [uvm_test_top.env.act.mon] rst=1, AWADDR=28, AWPROT=0, AWVALID=1, WDATA=4004110301, WSTRB=6, WVALID=1, BREADY=0, ARADDR=16, ARPROT=0, ARVALID=0, RREADY=0, AWREADY=1, WREADY=1, BRESP=0, BVALID=0, ARREADY=0, ARPROT=0, RDATA=0, RRESP=0, RVALID=1
UVM_INFO monitor.sv(52) @ 55: uvm_test_top.env.pass.mon [uvm_test_top.env.pass.mon] rst=1, AWADDR=28, AWPROT=0, AWVALID=1, WDATA=4004110301, WSTRB=6, WVALID=1, BREADY=0, ARADDR=16, ARPROT=0, ARVALID=0, RREADY=0, AWREADY=1, WREADY=1, BRESP=0, BVALID=0, ARREADY=0, ARPROT=0, RDATA=0, RRESP=0, RVALID=1
UVM_INFO driver.sv(37) @ 55: uvm_test_top.env.act.drv [DRV] AW=16/0/1 W=1419619327/1011/1 AR=28/0/1 BREADY=0 RREADY=1
UVM_INFO scoreboard.sv(233) @ 55: uvm_test_top.env.sc [SCOREBOARD] DUT: BRESP=0, RDATA=0, RRESP=0
REF: BRESP=0, RDATA=0, RRESP=0


UVM_INFO sequences.sv(53) @ 55: uvm_test_top.env.act.sqr@@aw_w [SEQ] AWADDR=52,AWPROT=0,AWVALID=1,WDATA=4260921180,WSTRB=111,WVALID=0,ARADDR=56,ARPROT=0,ARVALID=0,RREADY=0
UVM_INFO sequences.sv(53) @ 55: uvm_test_top.env.act.sqr@@aw_w [SEQ] AWADDR=52,AWPROT=0,AWVALID=0,WDATA=4260921180,WSTRB=111,WVALID=0,ARADDR=56,ARPROT=0,ARVALID=0,RREADY=0
UVM_INFO monitor.sv(52) @ 65: uvm_test_top.env.act.mon [uvm_test_top.env.act.mon] rst=1, AWADDR=16, AWPROT=0, AWVALID=1, WDATA=1419619327, WSTRB=11, WVALID=1, BREADY=0, ARADDR=28, ARPROT=0, ARVALID=1, RREADY=1, AWREADY=1, WREADY=1, BRESP=0, BVALID=0, ARREADY=0, ARPROT=0, RDATA=0, RRESP=0, RVALID=1
UVM_INFO monitor.sv(52) @ 65: uvm_test_top.env.pass.mon [uvm_test_top.env.pass.mon] rst=1, AWADDR=16, AWPROT=0, AWVALID=1, WDATA=1419619327, WSTRB=11, WVALID=1, BREADY=0, ARADDR=28, ARPROT=0, ARVALID=1, RREADY=1, AWREADY=1, WREADY=1, BRESP=0, BVALID=0, ARREADY=0, ARPROT=0, RDATA=0, RRESP=0, RVALID=1
UVM_INFO driver.sv(37) @ 65: uvm_test_top.env.act.drv [DRV] AW=52/0/0 W=4260921180/111/0 AR=56/0/0 BREADY=0 RREADY=0
UVM_INFO scoreboard.sv(233) @ 65: uvm_test_top.env.sc [SCOREBOARD] DUT: BRESP=0, RDATA=0, RRESP=0
REF: BRESP=0, RDATA=0, RRESP=0


UVM_INFO sequences.sv(53) @ 65: uvm_test_top.env.act.sqr@@w_aw [SEQ] AWADDR=40,AWPROT=0,AWVALID=0,WDATA=461172412,WSTRB=1000,WVALID=1,ARADDR=32,ARPROT=0,ARVALID=0,RREADY=0
UVM_INFO sequences.sv(53) @ 65: uvm_test_top.env.act.sqr@@w_aw [SEQ] AWADDR=40,AWPROT=0,AWVALID=0,WDATA=461172412,WSTRB=1000,WVALID=0,ARADDR=32,ARPROT=0,ARVALID=0,RREADY=0
UVM_INFO monitor.sv(52) @ 75: uvm_test_top.env.act.mon [uvm_test_top.env.act.mon] rst=1, AWADDR=52, AWPROT=0, AWVALID=0, WDATA=4260921180, WSTRB=7, WVALID=0, BREADY=0, ARADDR=56, ARPROT=0, ARVALID=0, RREADY=0, AWREADY=0, WREADY=0, BRESP=0, BVALID=0, ARREADY=0, ARPROT=0, RDATA=0, RRESP=0, RVALID=0
UVM_INFO monitor.sv(52) @ 75: uvm_test_top.env.pass.mon [uvm_test_top.env.pass.mon] rst=1, AWADDR=52, AWPROT=0, AWVALID=0, WDATA=4260921180, WSTRB=7, WVALID=0, BREADY=0, ARADDR=56, ARPROT=0, ARVALID=0, RREADY=0, AWREADY=0, WREADY=0, BRESP=0, BVALID=0, ARREADY=0, ARPROT=0, RDATA=0, RRESP=0, RVALID=0
UVM_INFO driver.sv(37) @ 75: uvm_test_top.env.act.drv [DRV] AW=40/0/0 W=461172412/1000/0 AR=32/0/0 BREADY=0 RREADY=0
UVM_INFO scoreboard.sv(233) @ 75: uvm_test_top.env.sc [SCOREBOARD] DUT: BRESP=0, RDATA=0, RRESP=0
REF: BRESP=0, RDATA=0, RRESP=0


UVM_INFO sequences.sv(53) @ 75: uvm_test_top.env.act.sqr@@bp [SEQ] AWADDR=36,AWPROT=0,AWVALID=0,WDATA=3252921207,WSTRB=1010,WVALID=0,ARADDR=52,ARPROT=0,ARVALID=1,RREADY=0
UVM_INFO sequences.sv(53) @ 75: uvm_test_top.env.act.sqr@@bp [SEQ] AWADDR=36,AWPROT=0,AWVALID=0,WDATA=3252921207,WSTRB=1010,WVALID=0,ARADDR=52,ARPROT=0,ARVALID=1,RREADY=0
UVM_INFO monitor.sv(52) @ 85: uvm_test_top.env.act.mon [uvm_test_top.env.act.mon] rst=1, AWADDR=40, AWPROT=0, AWVALID=0, WDATA=461172412, WSTRB=8, WVALID=0, BREADY=0, ARADDR=32, ARPROT=0, ARVALID=0, RREADY=0, AWREADY=0, WREADY=0, BRESP=0, BVALID=1, ARREADY=1, ARPROT=0, RDATA=0, RRESP=0, RVALID=0
UVM_INFO monitor.sv(52) @ 85: uvm_test_top.env.pass.mon [uvm_test_top.env.pass.mon] rst=1, AWADDR=40, AWPROT=0, AWVALID=0, WDATA=461172412, WSTRB=8, WVALID=0, BREADY=0, ARADDR=32, ARPROT=0, ARVALID=0, RREADY=0, AWREADY=0, WREADY=0, BRESP=0, BVALID=1, ARREADY=1, ARPROT=0, RDATA=0, RRESP=0, RVALID=0
UVM_INFO driver.sv(37) @ 85: uvm_test_top.env.act.drv [DRV] AW=36/0/0 W=3252921207/1010/0 AR=52/0/1 BREADY=0 RREADY=0
UVM_INFO scoreboard.sv(233) @ 85: uvm_test_top.env.sc [SCOREBOARD] DUT: BRESP=0, RDATA=0, RRESP=0
REF: BRESP=0, RDATA=0, RRESP=0


UVM_INFO sequences.sv(53) @ 85: uvm_test_top.env.act.sqr@@seq [SEQ] AWADDR=28,AWPROT=0,AWVALID=1,WDATA=2200498967,WSTRB=111,WVALID=0,ARADDR=48,ARPROT=0,ARVALID=0,RREADY=0
UVM_INFO monitor.sv(52) @ 95: uvm_test_top.env.act.mon [uvm_test_top.env.act.mon] rst=1, AWADDR=36, AWPROT=0, AWVALID=0, WDATA=3252921207, WSTRB=10, WVALID=0, BREADY=0, ARADDR=52, ARPROT=0, ARVALID=1, RREADY=0, AWREADY=0, WREADY=0, BRESP=0, BVALID=1, ARREADY=1, ARPROT=0, RDATA=0, RRESP=0, RVALID=0
UVM_INFO monitor.sv(52) @ 95: uvm_test_top.env.pass.mon [uvm_test_top.env.pass.mon] rst=1, AWADDR=36, AWPROT=0, AWVALID=0, WDATA=3252921207, WSTRB=10, WVALID=0, BREADY=0, ARADDR=52, ARPROT=0, ARVALID=1, RREADY=0, AWREADY=0, WREADY=0, BRESP=0, BVALID=1, ARREADY=1, ARPROT=0, RDATA=0, RRESP=0, RVALID=0
UVM_INFO driver.sv(37) @ 95: uvm_test_top.env.act.drv [DRV] AW=28/0/1 W=2200498967/111/0 AR=48/0/0 BREADY=0 RREADY=0
UVM_INFO scoreboard.sv(233) @ 95: uvm_test_top.env.sc [SCOREBOARD] DUT: BRESP=0, RDATA=0, RRESP=0
REF: BRESP=0, RDATA=0, RRESP=0


UVM_INFO sequences.sv(53) @ 95: uvm_test_top.env.act.sqr@@rd_a [SEQ] AWADDR=12,AWPROT=0,AWVALID=1,WDATA=1085520442,WSTRB=1111,WVALID=0,ARADDR=20,ARPROT=0,ARVALID=1,RREADY=1
UVM_INFO sequences.sv(53) @ 95: uvm_test_top.env.act.sqr@@rd_a [SEQ] AWADDR=12,AWPROT=0,AWVALID=0,WDATA=1085520442,WSTRB=1111,WVALID=0,ARADDR=20,ARPROT=0,ARVALID=1,RREADY=1
UVM_INFO monitor.sv(52) @ 105: uvm_test_top.env.act.mon [uvm_test_top.env.act.mon] rst=1, AWADDR=28, AWPROT=0, AWVALID=1, WDATA=2200498967, WSTRB=7, WVALID=0, BREADY=0, ARADDR=48, ARPROT=0, ARVALID=0, RREADY=0, AWREADY=0, WREADY=0, BRESP=0, BVALID=1, ARREADY=0, ARPROT=0, RDATA=0, RRESP=2, RVALID=1
UVM_INFO monitor.sv(52) @ 105: uvm_test_top.env.pass.mon [uvm_test_top.env.pass.mon] rst=1, AWADDR=28, AWPROT=0, AWVALID=1, WDATA=2200498967, WSTRB=7, WVALID=0, BREADY=0, ARADDR=48, ARPROT=0, ARVALID=0, RREADY=0, AWREADY=0, WREADY=0, BRESP=0, BVALID=1, ARREADY=0, ARPROT=0, RDATA=0, RRESP=2, RVALID=1
UVM_INFO driver.sv(37) @ 105: uvm_test_top.env.act.drv [DRV] AW=12/0/0 W=1085520442/1111/0 AR=20/0/1 BREADY=0 RREADY=1
UVM_INFO scoreboard.sv(233) @ 105: uvm_test_top.env.sc [SCOREBOARD] DUT: BRESP=0, RDATA=0, RRESP=2
REF: BRESP=0, RDATA=0, RRESP=2


UVM_INFO sequences.sv(53) @ 105: uvm_test_top.env.act.sqr@@rd_b [SEQ] AWADDR=12,AWPROT=0,AWVALID=1,WDATA=3363313527,WSTRB=1110,WVALID=0,ARADDR=28,ARPROT=0,ARVALID=1,RREADY=0
UVM_INFO sequences.sv(53) @ 105: uvm_test_top.env.act.sqr@@rd_b [SEQ] AWADDR=12,AWPROT=0,AWVALID=0,WDATA=3363313527,WSTRB=1110,WVALID=0,ARADDR=28,ARPROT=0,ARVALID=1,RREADY=0
UVM_INFO monitor.sv(52) @ 115: uvm_test_top.env.act.mon [uvm_test_top.env.act.mon] rst=1, AWADDR=12, AWPROT=0, AWVALID=0, WDATA=1085520442, WSTRB=15, WVALID=0, BREADY=0, ARADDR=20, ARPROT=0, ARVALID=1, RREADY=1, AWREADY=0, WREADY=0, BRESP=0, BVALID=1, ARREADY=0, ARPROT=0, RDATA=0, RRESP=2, RVALID=1
UVM_INFO monitor.sv(52) @ 115: uvm_test_top.env.pass.mon [uvm_test_top.env.pass.mon] rst=1, AWADDR=12, AWPROT=0, AWVALID=0, WDATA=1085520442, WSTRB=15, WVALID=0, BREADY=0, ARADDR=20, ARPROT=0, ARVALID=1, RREADY=1, AWREADY=0, WREADY=0, BRESP=0, BVALID=1, ARREADY=0, ARPROT=0, RDATA=0, RRESP=2, RVALID=1
UVM_INFO driver.sv(37) @ 115: uvm_test_top.env.act.drv [DRV] AW=12/0/0 W=3363313527/1110/0 AR=28/0/1 BREADY=1 RREADY=0
UVM_INFO scoreboard.sv(233) @ 115: uvm_test_top.env.sc [SCOREBOARD] DUT: BRESP=0, RDATA=0, RRESP=2
REF: BRESP=0, RDATA=0, RRESP=2


UVM_INFO sequences.sv(53) @ 115: uvm_test_top.env.act.sqr@@rd_c [SEQ] AWADDR=0,AWPROT=0,AWVALID=1,WDATA=927270660,WSTRB=1110,WVALID=0,ARADDR=24,ARPROT=0,ARVALID=1,RREADY=1
UVM_INFO sequences.sv(53) @ 115: uvm_test_top.env.act.sqr@@rd_c [SEQ] AWADDR=0,AWPROT=0,AWVALID=0,WDATA=927270660,WSTRB=1110,WVALID=0,ARADDR=24,ARPROT=0,ARVALID=1,RREADY=1
UVM_INFO monitor.sv(52) @ 125: uvm_test_top.env.act.mon [uvm_test_top.env.act.mon] rst=1, AWADDR=12, AWPROT=0, AWVALID=0, WDATA=3363313527, WSTRB=14, WVALID=0, BREADY=1, ARADDR=28, ARPROT=0, ARVALID=1, RREADY=0, AWREADY=0, WREADY=0, BRESP=0, BVALID=1, ARREADY=0, ARPROT=0, RDATA=0, RRESP=2, RVALID=0
UVM_INFO monitor.sv(52) @ 125: uvm_test_top.env.pass.mon [uvm_test_top.env.pass.mon] rst=1, AWADDR=12, AWPROT=0, AWVALID=0, WDATA=3363313527, WSTRB=14, WVALID=0, BREADY=1, ARADDR=28, ARPROT=0, ARVALID=1, RREADY=0, AWREADY=0, WREADY=0, BRESP=0, BVALID=1, ARREADY=0, ARPROT=0, RDATA=0, RRESP=2, RVALID=0
UVM_INFO driver.sv(37) @ 125: uvm_test_top.env.act.drv [DRV] AW=0/0/0 W=927270660/1110/0 AR=24/0/1 BREADY=0 RREADY=1
UVM_INFO scoreboard.sv(233) @ 125: uvm_test_top.env.sc [SCOREBOARD] DUT: BRESP=0, RDATA=0, RRESP=2
REF: BRESP=0, RDATA=0, RRESP=2


UVM_INFO sequences.sv(53) @ 125: uvm_test_top.env.act.sqr@@wr_simul [SEQ] AWADDR=28,AWPROT=0,AWVALID=1,WDATA=4004110301,WSTRB=110,WVALID=1,ARADDR=16,ARPROT=0,ARVALID=1,RREADY=1
UVM_INFO sequences.sv(53) @ 125: uvm_test_top.env.act.sqr@@wr_simul [SEQ] AWADDR=28,AWPROT=0,AWVALID=1,WDATA=4004110301,WSTRB=110,WVALID=1,ARADDR=16,ARPROT=0,ARVALID=0,RREADY=1
UVM_INFO monitor.sv(52) @ 135: uvm_test_top.env.act.mon [uvm_test_top.env.act.mon] rst=1, AWADDR=0, AWPROT=0, AWVALID=0, WDATA=927270660, WSTRB=14, WVALID=0, BREADY=0, ARADDR=24, ARPROT=0, ARVALID=1, RREADY=1, AWREADY=0, WREADY=0, BRESP=0, BVALID=0, ARREADY=1, ARPROT=0, RDATA=0, RRESP=2, RVALID=0
UVM_INFO monitor.sv(52) @ 135: uvm_test_top.env.pass.mon [uvm_test_top.env.pass.mon] rst=1, AWADDR=0, AWPROT=0, AWVALID=0, WDATA=927270660, WSTRB=14, WVALID=0, BREADY=0, ARADDR=24, ARPROT=0, ARVALID=1, RREADY=1, AWREADY=0, WREADY=0, BRESP=0, BVALID=0, ARREADY=1, ARPROT=0, RDATA=0, RRESP=2, RVALID=0
UVM_INFO driver.sv(37) @ 135: uvm_test_top.env.act.drv [DRV] AW=28/0/1 W=4004110301/110/1 AR=16/0/0 BREADY=0 RREADY=1
UVM_INFO scoreboard.sv(233) @ 135: uvm_test_top.env.sc [SCOREBOARD] DUT: BRESP=0, RDATA=0, RRESP=2
REF: BRESP=0, RDATA=0, RRESP=2


UVM_INFO sequences.sv(53) @ 135: uvm_test_top.env.act.sqr@@wr_rd [SEQ] AWADDR=16,AWPROT=0,AWVALID=1,WDATA=1419619327,WSTRB=1011,WVALID=1,ARADDR=8,ARPROT=0,ARVALID=0,RREADY=1
UVM_INFO sequences.sv(53) @ 135: uvm_test_top.env.act.sqr@@wr_rd [SEQ] AWADDR=16,AWPROT=0,AWVALID=1,WDATA=1419619327,WSTRB=1011,WVALID=1,ARADDR=8,ARPROT=0,ARVALID=1,RREADY=1
UVM_INFO monitor.sv(52) @ 145: uvm_test_top.env.act.mon [uvm_test_top.env.act.mon] rst=1, AWADDR=28, AWPROT=0, AWVALID=1, WDATA=4004110301, WSTRB=6, WVALID=1, BREADY=0, ARADDR=16, ARPROT=0, ARVALID=0, RREADY=1, AWREADY=1, WREADY=1, BRESP=0, BVALID=0, ARREADY=0, ARPROT=0, RDATA=0, RRESP=0, RVALID=1
UVM_INFO monitor.sv(52) @ 145: uvm_test_top.env.pass.mon [uvm_test_top.env.pass.mon] rst=1, AWADDR=28, AWPROT=0, AWVALID=1, WDATA=4004110301, WSTRB=6, WVALID=1, BREADY=0, ARADDR=16, ARPROT=0, ARVALID=0, RREADY=1, AWREADY=1, WREADY=1, BRESP=0, BVALID=0, ARREADY=0, ARPROT=0, RDATA=0, RRESP=0, RVALID=1
UVM_INFO driver.sv(37) @ 145: uvm_test_top.env.act.drv [DRV] AW=16/0/1 W=1419619327/1011/1 AR=8/0/1 BREADY=0 RREADY=1
UVM_INFO scoreboard.sv(233) @ 145: uvm_test_top.env.sc [SCOREBOARD] DUT: BRESP=0, RDATA=0, RRESP=0
REF: BRESP=0, RDATA=0, RRESP=0


UVM_INFO sequences.sv(53) @ 145: uvm_test_top.env.act.sqr@@aw_w [SEQ] AWADDR=4,AWPROT=0,AWVALID=0,WDATA=1845686736,WSTRB=11,WVALID=1,ARADDR=44,ARPROT=0,ARVALID=0,RREADY=0
UVM_INFO sequences.sv(53) @ 145: uvm_test_top.env.act.sqr@@aw_w [SEQ] AWADDR=4,AWPROT=0,AWVALID=1,WDATA=1845686736,WSTRB=11,WVALID=0,ARADDR=44,ARPROT=0,ARVALID=0,RREADY=0
UVM_INFO monitor.sv(52) @ 155: uvm_test_top.env.act.mon [uvm_test_top.env.act.mon] rst=1, AWADDR=16, AWPROT=0, AWVALID=1, WDATA=1419619327, WSTRB=11, WVALID=1, BREADY=0, ARADDR=8, ARPROT=0, ARVALID=1, RREADY=1, AWREADY=1, WREADY=1, BRESP=0, BVALID=0, ARREADY=0, ARPROT=0, RDATA=0, RRESP=0, RVALID=0
UVM_INFO monitor.sv(52) @ 155: uvm_test_top.env.pass.mon [uvm_test_top.env.pass.mon] rst=1, AWADDR=16, AWPROT=0, AWVALID=1, WDATA=1419619327, WSTRB=11, WVALID=1, BREADY=0, ARADDR=8, ARPROT=0, ARVALID=1, RREADY=1, AWREADY=1, WREADY=1, BRESP=0, BVALID=0, ARREADY=0, ARPROT=0, RDATA=0, RRESP=0, RVALID=0
UVM_INFO driver.sv(37) @ 155: uvm_test_top.env.act.drv [DRV] AW=4/0/1 W=1845686736/11/0 AR=44/0/0 BREADY=1 RREADY=0
UVM_INFO scoreboard.sv(233) @ 155: uvm_test_top.env.sc [SCOREBOARD] DUT: BRESP=0, RDATA=0, RRESP=0
REF: BRESP=0, RDATA=0, RRESP=0


UVM_INFO sequences.sv(53) @ 155: uvm_test_top.env.act.sqr@@w_aw [SEQ] AWADDR=24,AWPROT=0,AWVALID=1,WDATA=440502963,WSTRB=0,WVALID=1,ARADDR=40,ARPROT=0,ARVALID=1,RREADY=0
UVM_INFO sequences.sv(53) @ 155: uvm_test_top.env.act.sqr@@w_aw [SEQ] AWADDR=24,AWPROT=0,AWVALID=0,WDATA=440502963,WSTRB=0,WVALID=0,ARADDR=40,ARPROT=0,ARVALID=0,RREADY=0
UVM_INFO monitor.sv(52) @ 165: uvm_test_top.env.act.mon [uvm_test_top.env.act.mon] rst=1, AWADDR=4, AWPROT=0, AWVALID=1, WDATA=1845686736, WSTRB=3, WVALID=0, BREADY=1, ARADDR=44, ARPROT=0, ARVALID=0, RREADY=0, AWREADY=0, WREADY=0, BRESP=0, BVALID=0, ARREADY=1, ARPROT=0, RDATA=0, RRESP=0, RVALID=0
UVM_INFO monitor.sv(52) @ 165: uvm_test_top.env.pass.mon [uvm_test_top.env.pass.mon] rst=1, AWADDR=4, AWPROT=0, AWVALID=1, WDATA=1845686736, WSTRB=3, WVALID=0, BREADY=1, ARADDR=44, ARPROT=0, ARVALID=0, RREADY=0, AWREADY=0, WREADY=0, BRESP=0, BVALID=0, ARREADY=1, ARPROT=0, RDATA=0, RRESP=0, RVALID=0
UVM_INFO driver.sv(37) @ 165: uvm_test_top.env.act.drv [DRV] AW=24/0/0 W=440502963/0/0 AR=40/0/0 BREADY=1 RREADY=0
UVM_INFO scoreboard.sv(233) @ 165: uvm_test_top.env.sc [SCOREBOARD] DUT: BRESP=0, RDATA=0, RRESP=0
REF: BRESP=0, RDATA=0, RRESP=0


UVM_INFO sequences.sv(53) @ 165: uvm_test_top.env.act.sqr@@bp [SEQ] AWADDR=20,AWPROT=0,AWVALID=1,WDATA=324112024,WSTRB=1110,WVALID=1,ARADDR=52,ARPROT=0,ARVALID=1,RREADY=1
UVM_INFO sequences.sv(53) @ 165: uvm_test_top.env.act.sqr@@bp [SEQ] AWADDR=20,AWPROT=0,AWVALID=1,WDATA=324112024,WSTRB=1110,WVALID=1,ARADDR=52,ARPROT=0,ARVALID=1,RREADY=0
UVM_INFO monitor.sv(52) @ 175: uvm_test_top.env.act.mon [uvm_test_top.env.act.mon] rst=1, AWADDR=24, AWPROT=0, AWVALID=0, WDATA=440502963, WSTRB=0, WVALID=0, BREADY=1, ARADDR=40, ARPROT=0, ARVALID=0, RREADY=0, AWREADY=0, WREADY=0, BRESP=0, BVALID=1, ARREADY=1, ARPROT=0, RDATA=0, RRESP=0, RVALID=0
UVM_INFO monitor.sv(52) @ 175: uvm_test_top.env.pass.mon [uvm_test_top.env.pass.mon] rst=1, AWADDR=24, AWPROT=0, AWVALID=0, WDATA=440502963, WSTRB=0, WVALID=0, BREADY=1, ARADDR=40, ARPROT=0, ARVALID=0, RREADY=0, AWREADY=0, WREADY=0, BRESP=0, BVALID=1, ARREADY=1, ARPROT=0, RDATA=0, RRESP=0, RVALID=0
UVM_INFO driver.sv(37) @ 175: uvm_test_top.env.act.drv [DRV] AW=20/0/1 W=324112024/1110/1 AR=52/0/1 BREADY=0 RREADY=0
UVM_INFO scoreboard.sv(233) @ 175: uvm_test_top.env.sc [SCOREBOARD] DUT: BRESP=0, RDATA=0, RRESP=0
REF: BRESP=0, RDATA=0, RRESP=0


UVM_INFO sequences.sv(53) @ 175: uvm_test_top.env.act.sqr@@seq [SEQ] AWADDR=60,AWPROT=0,AWVALID=0,WDATA=304522503,WSTRB=111,WVALID=0,ARADDR=44,ARPROT=0,ARVALID=0,RREADY=0
UVM_INFO monitor.sv(52) @ 185: uvm_test_top.env.act.mon [uvm_test_top.env.act.mon] rst=1, AWADDR=20, AWPROT=0, AWVALID=1, WDATA=324112024, WSTRB=14, WVALID=1, BREADY=0, ARADDR=52, ARPROT=0, ARVALID=1, RREADY=0, AWREADY=0, WREADY=0, BRESP=0, BVALID=0, ARREADY=1, ARPROT=0, RDATA=0, RRESP=0, RVALID=0
UVM_INFO monitor.sv(52) @ 185: uvm_test_top.env.pass.mon [uvm_test_top.env.pass.mon] rst=1, AWADDR=20, AWPROT=0, AWVALID=1, WDATA=324112024, WSTRB=14, WVALID=1, BREADY=0, ARADDR=52, ARPROT=0, ARVALID=1, RREADY=0, AWREADY=0, WREADY=0, BRESP=0, BVALID=0, ARREADY=1, ARPROT=0, RDATA=0, RRESP=0, RVALID=0
UVM_INFO driver.sv(37) @ 185: uvm_test_top.env.act.drv [DRV] AW=60/0/0 W=304522503/111/0 AR=44/0/0 BREADY=1 RREADY=0
UVM_INFO scoreboard.sv(233) @ 185: uvm_test_top.env.sc [SCOREBOARD] DUT: BRESP=0, RDATA=0, RRESP=0
REF: BRESP=0, RDATA=0, RRESP=0


UVM_INFO sequences.sv(53) @ 185: uvm_test_top.env.act.sqr@@rd_a [SEQ] AWADDR=36,AWPROT=0,AWVALID=0,WDATA=1962065987,WSTRB=1110,WVALID=1,ARADDR=16,ARPROT=0,ARVALID=1,RREADY=1
UVM_INFO sequences.sv(53) @ 185: uvm_test_top.env.act.sqr@@rd_a [SEQ] AWADDR=36,AWPROT=0,AWVALID=0,WDATA=1962065987,WSTRB=1110,WVALID=0,ARADDR=16,ARPROT=0,ARVALID=1,RREADY=1
UVM_INFO monitor.sv(52) @ 195: uvm_test_top.env.act.mon [uvm_test_top.env.act.mon] rst=1, AWADDR=60, AWPROT=0, AWVALID=0, WDATA=304522503, WSTRB=7, WVALID=0, BREADY=1, ARADDR=44, ARPROT=0, ARVALID=0, RREADY=0, AWREADY=1, WREADY=1, BRESP=0, BVALID=0, ARREADY=0, ARPROT=0, RDATA=0, RRESP=2, RVALID=1
UVM_INFO monitor.sv(52) @ 195: uvm_test_top.env.pass.mon [uvm_test_top.env.pass.mon] rst=1, AWADDR=60, AWPROT=0, AWVALID=0, WDATA=304522503, WSTRB=7, WVALID=0, BREADY=1, ARADDR=44, ARPROT=0, ARVALID=0, RREADY=0, AWREADY=1, WREADY=1, BRESP=0, BVALID=0, ARREADY=0, ARPROT=0, RDATA=0, RRESP=2, RVALID=1
UVM_INFO driver.sv(37) @ 195: uvm_test_top.env.act.drv [DRV] AW=36/0/0 W=1962065987/1110/0 AR=16/0/1 BREADY=1 RREADY=1
UVM_INFO scoreboard.sv(233) @ 195: uvm_test_top.env.sc [SCOREBOARD] DUT: BRESP=0, RDATA=0, RRESP=2
REF: BRESP=0, RDATA=0, RRESP=2


UVM_INFO sequences.sv(53) @ 195: uvm_test_top.env.act.sqr@@rd_b [SEQ] AWADDR=16,AWPROT=0,AWVALID=1,WDATA=191472785,WSTRB=1,WVALID=0,ARADDR=12,ARPROT=0,ARVALID=1,RREADY=0
UVM_INFO sequences.sv(53) @ 195: uvm_test_top.env.act.sqr@@rd_b [SEQ] AWADDR=16,AWPROT=0,AWVALID=0,WDATA=191472785,WSTRB=1,WVALID=0,ARADDR=12,ARPROT=0,ARVALID=1,RREADY=0
UVM_INFO monitor.sv(52) @ 205: uvm_test_top.env.act.mon [uvm_test_top.env.act.mon] rst=1, AWADDR=36, AWPROT=0, AWVALID=0, WDATA=1962065987, WSTRB=14, WVALID=0, BREADY=1, ARADDR=16, ARPROT=0, ARVALID=1, RREADY=1, AWREADY=1, WREADY=1, BRESP=0, BVALID=0, ARREADY=0, ARPROT=0, RDATA=0, RRESP=2, RVALID=1
UVM_INFO monitor.sv(52) @ 205: uvm_test_top.env.pass.mon [uvm_test_top.env.pass.mon] rst=1, AWADDR=36, AWPROT=0, AWVALID=0, WDATA=1962065987, WSTRB=14, WVALID=0, BREADY=1, ARADDR=16, ARPROT=0, ARVALID=1, RREADY=1, AWREADY=1, WREADY=1, BRESP=0, BVALID=0, ARREADY=0, ARPROT=0, RDATA=0, RRESP=2, RVALID=1
UVM_INFO driver.sv(37) @ 205: uvm_test_top.env.act.drv [DRV] AW=16/0/0 W=191472785/1/0 AR=12/0/1 BREADY=0 RREADY=0
UVM_INFO scoreboard.sv(233) @ 205: uvm_test_top.env.sc [SCOREBOARD] DUT: BRESP=0, RDATA=0, RRESP=2
REF: BRESP=0, RDATA=0, RRESP=2


UVM_INFO sequences.sv(53) @ 205: uvm_test_top.env.act.sqr@@rd_c [SEQ] AWADDR=36,AWPROT=0,AWVALID=0,WDATA=3738139627,WSTRB=1010,WVALID=0,ARADDR=60,ARPROT=0,ARVALID=0,RREADY=0
UVM_INFO sequences.sv(53) @ 205: uvm_test_top.env.act.sqr@@rd_c [SEQ] AWADDR=36,AWPROT=0,AWVALID=0,WDATA=3738139627,WSTRB=1010,WVALID=0,ARADDR=60,ARPROT=0,ARVALID=1,RREADY=0
UVM_INFO monitor.sv(52) @ 215: uvm_test_top.env.act.mon [uvm_test_top.env.act.mon] rst=1, AWADDR=16, AWPROT=0, AWVALID=0, WDATA=191472785, WSTRB=1, WVALID=0, BREADY=0, ARADDR=12, ARPROT=0, ARVALID=1, RREADY=0, AWREADY=1, WREADY=1, BRESP=0, BVALID=0, ARREADY=0, ARPROT=0, RDATA=0, RRESP=2, RVALID=0
UVM_INFO monitor.sv(52) @ 215: uvm_test_top.env.pass.mon [uvm_test_top.env.pass.mon] rst=1, AWADDR=16, AWPROT=0, AWVALID=0, WDATA=191472785, WSTRB=1, WVALID=0, BREADY=0, ARADDR=12, ARPROT=0, ARVALID=1, RREADY=0, AWREADY=1, WREADY=1, BRESP=0, BVALID=0, ARREADY=0, ARPROT=0, RDATA=0, RRESP=2, RVALID=0
UVM_INFO driver.sv(37) @ 215: uvm_test_top.env.act.drv [DRV] AW=36/0/0 W=3738139627/1010/0 AR=60/0/1 BREADY=0 RREADY=0
UVM_INFO scoreboard.sv(233) @ 215: uvm_test_top.env.sc [SCOREBOARD] DUT: BRESP=0, RDATA=0, RRESP=2
REF: BRESP=0, RDATA=0, RRESP=2


UVM_INFO sequences.sv(53) @ 215: uvm_test_top.env.act.sqr@@wr_simul [SEQ] AWADDR=28,AWPROT=0,AWVALID=1,WDATA=4004110301,WSTRB=110,WVALID=1,ARADDR=56,ARPROT=0,ARVALID=1,RREADY=0
UVM_INFO sequences.sv(53) @ 215: uvm_test_top.env.act.sqr@@wr_simul [SEQ] AWADDR=28,AWPROT=0,AWVALID=1,WDATA=4004110301,WSTRB=110,WVALID=1,ARADDR=56,ARPROT=0,ARVALID=0,RREADY=0
UVM_INFO monitor.sv(52) @ 225: uvm_test_top.env.act.mon [uvm_test_top.env.act.mon] rst=1, AWADDR=36, AWPROT=0, AWVALID=0, WDATA=3738139627, WSTRB=10, WVALID=0, BREADY=0, ARADDR=60, ARPROT=0, ARVALID=1, RREADY=0, AWREADY=1, WREADY=1, BRESP=0, BVALID=0, ARREADY=1, ARPROT=0, RDATA=0, RRESP=2, RVALID=0
UVM_INFO monitor.sv(52) @ 225: uvm_test_top.env.pass.mon [uvm_test_top.env.pass.mon] rst=1, AWADDR=36, AWPROT=0, AWVALID=0, WDATA=3738139627, WSTRB=10, WVALID=0, BREADY=0, ARADDR=60, ARPROT=0, ARVALID=1, RREADY=0, AWREADY=1, WREADY=1, BRESP=0, BVALID=0, ARREADY=1, ARPROT=0, RDATA=0, RRESP=2, RVALID=0
UVM_INFO driver.sv(37) @ 225: uvm_test_top.env.act.drv [DRV] AW=28/0/1 W=4004110301/110/1 AR=56/0/0 BREADY=0 RREADY=0
UVM_INFO scoreboard.sv(233) @ 225: uvm_test_top.env.sc [SCOREBOARD] DUT: BRESP=0, RDATA=0, RRESP=2
REF: BRESP=0, RDATA=0, RRESP=2


UVM_INFO sequences.sv(53) @ 225: uvm_test_top.env.act.sqr@@wr_rd [SEQ] AWADDR=16,AWPROT=0,AWVALID=1,WDATA=1419619327,WSTRB=1011,WVALID=1,ARADDR=24,ARPROT=0,ARVALID=0,RREADY=0
UVM_INFO sequences.sv(53) @ 225: uvm_test_top.env.act.sqr@@wr_rd [SEQ] AWADDR=16,AWPROT=0,AWVALID=1,WDATA=1419619327,WSTRB=1011,WVALID=1,ARADDR=24,ARPROT=0,ARVALID=1,RREADY=0
UVM_INFO monitor.sv(52) @ 235: uvm_test_top.env.act.mon [uvm_test_top.env.act.mon] rst=1, AWADDR=28, AWPROT=0, AWVALID=1, WDATA=4004110301, WSTRB=6, WVALID=1, BREADY=0, ARADDR=56, ARPROT=0, ARVALID=0, RREADY=0, AWREADY=1, WREADY=1, BRESP=0, BVALID=0, ARREADY=0, ARPROT=0, RDATA=0, RRESP=0, RVALID=1
UVM_INFO monitor.sv(52) @ 235: uvm_test_top.env.pass.mon [uvm_test_top.env.pass.mon] rst=1, AWADDR=28, AWPROT=0, AWVALID=1, WDATA=4004110301, WSTRB=6, WVALID=1, BREADY=0, ARADDR=56, ARPROT=0, ARVALID=0, RREADY=0, AWREADY=1, WREADY=1, BRESP=0, BVALID=0, ARREADY=0, ARPROT=0, RDATA=0, RRESP=0, RVALID=1
UVM_INFO driver.sv(37) @ 235: uvm_test_top.env.act.drv [DRV] AW=16/0/1 W=1419619327/1011/1 AR=24/0/1 BREADY=1 RREADY=0
UVM_INFO scoreboard.sv(233) @ 235: uvm_test_top.env.sc [SCOREBOARD] DUT: BRESP=0, RDATA=0, RRESP=0
REF: BRESP=0, RDATA=0, RRESP=0


UVM_INFO sequences.sv(53) @ 235: uvm_test_top.env.act.sqr@@aw_w [SEQ] AWADDR=4,AWPROT=0,AWVALID=1,WDATA=4240987607,WSTRB=1110,WVALID=0,ARADDR=24,ARPROT=0,ARVALID=1,RREADY=0
UVM_INFO sequences.sv(53) @ 235: uvm_test_top.env.act.sqr@@aw_w [SEQ] AWADDR=4,AWPROT=0,AWVALID=0,WDATA=4240987607,WSTRB=1110,WVALID=0,ARADDR=24,ARPROT=0,ARVALID=0,RREADY=0
UVM_INFO monitor.sv(52) @ 245: uvm_test_top.env.act.mon [uvm_test_top.env.act.mon] rst=1, AWADDR=16, AWPROT=0, AWVALID=1, WDATA=1419619327, WSTRB=11, WVALID=1, BREADY=1, ARADDR=24, ARPROT=0, ARVALID=1, RREADY=0, AWREADY=0, WREADY=0, BRESP=0, BVALID=0, ARREADY=0, ARPROT=0, RDATA=0, RRESP=0, RVALID=1
UVM_INFO monitor.sv(52) @ 245: uvm_test_top.env.pass.mon [uvm_test_top.env.pass.mon] rst=1, AWADDR=16, AWPROT=0, AWVALID=1, WDATA=1419619327, WSTRB=11, WVALID=1, BREADY=1, ARADDR=24, ARPROT=0, ARVALID=1, RREADY=0, AWREADY=0, WREADY=0, BRESP=0, BVALID=0, ARREADY=0, ARPROT=0, RDATA=0, RRESP=0, RVALID=1
UVM_INFO driver.sv(37) @ 245: uvm_test_top.env.act.drv [DRV] AW=4/0/0 W=4240987607/1110/0 AR=24/0/0 BREADY=1 RREADY=0
UVM_INFO scoreboard.sv(233) @ 245: uvm_test_top.env.sc [SCOREBOARD] DUT: BRESP=0, RDATA=0, RRESP=0
REF: BRESP=0, RDATA=0, RRESP=0


UVM_INFO sequences.sv(53) @ 245: uvm_test_top.env.act.sqr@@w_aw [SEQ] AWADDR=52,AWPROT=0,AWVALID=1,WDATA=1891945065,WSTRB=111,WVALID=0,ARADDR=28,ARPROT=0,ARVALID=0,RREADY=0
UVM_INFO sequences.sv(53) @ 245: uvm_test_top.env.act.sqr@@w_aw [SEQ] AWADDR=52,AWPROT=0,AWVALID=0,WDATA=1891945065,WSTRB=111,WVALID=0,ARADDR=28,ARPROT=0,ARVALID=0,RREADY=0
UVM_INFO monitor.sv(52) @ 255: uvm_test_top.env.act.mon [uvm_test_top.env.act.mon] rst=1, AWADDR=4, AWPROT=0, AWVALID=0, WDATA=4240987607, WSTRB=14, WVALID=0, BREADY=1, ARADDR=24, ARPROT=0, ARVALID=0, RREADY=0, AWREADY=0, WREADY=0, BRESP=0, BVALID=1, ARREADY=0, ARPROT=0, RDATA=0, RRESP=0, RVALID=1
UVM_INFO monitor.sv(52) @ 255: uvm_test_top.env.pass.mon [uvm_test_top.env.pass.mon] rst=1, AWADDR=4, AWPROT=0, AWVALID=0, WDATA=4240987607, WSTRB=14, WVALID=0, BREADY=1, ARADDR=24, ARPROT=0, ARVALID=0, RREADY=0, AWREADY=0, WREADY=0, BRESP=0, BVALID=1, ARREADY=0, ARPROT=0, RDATA=0, RRESP=0, RVALID=1
UVM_INFO driver.sv(37) @ 255: uvm_test_top.env.act.drv [DRV] AW=52/0/0 W=1891945065/111/0 AR=28/0/0 BREADY=1 RREADY=0
UVM_INFO scoreboard.sv(233) @ 255: uvm_test_top.env.sc [SCOREBOARD] DUT: BRESP=0, RDATA=0, RRESP=0
REF: BRESP=0, RDATA=0, RRESP=0


UVM_INFO sequences.sv(53) @ 255: uvm_test_top.env.act.sqr@@bp [SEQ] AWADDR=8,AWPROT=0,AWVALID=1,WDATA=2627871660,WSTRB=1100,WVALID=0,ARADDR=52,ARPROT=0,ARVALID=1,RREADY=1
UVM_INFO sequences.sv(53) @ 255: uvm_test_top.env.act.sqr@@bp [SEQ] AWADDR=8,AWPROT=0,AWVALID=1,WDATA=2627871660,WSTRB=1100,WVALID=0,ARADDR=52,ARPROT=0,ARVALID=1,RREADY=0
UVM_INFO monitor.sv(52) @ 265: uvm_test_top.env.act.mon [uvm_test_top.env.act.mon] rst=1, AWADDR=52, AWPROT=0, AWVALID=0, WDATA=1891945065, WSTRB=7, WVALID=0, BREADY=1, ARADDR=28, ARPROT=0, ARVALID=0, RREADY=0, AWREADY=0, WREADY=0, BRESP=0, BVALID=0, ARREADY=0, ARPROT=0, RDATA=0, RRESP=0, RVALID=1
UVM_INFO monitor.sv(52) @ 265: uvm_test_top.env.pass.mon [uvm_test_top.env.pass.mon] rst=1, AWADDR=52, AWPROT=0, AWVALID=0, WDATA=1891945065, WSTRB=7, WVALID=0, BREADY=1, ARADDR=28, ARPROT=0, ARVALID=0, RREADY=0, AWREADY=0, WREADY=0, BRESP=0, BVALID=0, ARREADY=0, ARPROT=0, RDATA=0, RRESP=0, RVALID=1
UVM_INFO driver.sv(37) @ 265: uvm_test_top.env.act.drv [DRV] AW=8/0/1 W=2627871660/1100/0 AR=52/0/1 BREADY=0 RREADY=0
UVM_INFO scoreboard.sv(233) @ 265: uvm_test_top.env.sc [SCOREBOARD] DUT: BRESP=0, RDATA=0, RRESP=0
REF: BRESP=0, RDATA=0, RRESP=0


UVM_INFO sequences.sv(53) @ 265: uvm_test_top.env.act.sqr@@seq [SEQ] AWADDR=44,AWPROT=0,AWVALID=1,WDATA=1183513156,WSTRB=1000,WVALID=1,ARADDR=40,ARPROT=0,ARVALID=0,RREADY=1
UVM_INFO monitor.sv(52) @ 275: uvm_test_top.env.act.mon [uvm_test_top.env.act.mon] rst=1, AWADDR=8, AWPROT=0, AWVALID=1, WDATA=2627871660, WSTRB=12, WVALID=0, BREADY=0, ARADDR=52, ARPROT=0, ARVALID=1, RREADY=0, AWREADY=1, WREADY=1, BRESP=0, BVALID=0, ARREADY=0, ARPROT=0, RDATA=0, RRESP=0, RVALID=1
UVM_INFO monitor.sv(52) @ 275: uvm_test_top.env.pass.mon [uvm_test_top.env.pass.mon] rst=1, AWADDR=8, AWPROT=0, AWVALID=1, WDATA=2627871660, WSTRB=12, WVALID=0, BREADY=0, ARADDR=52, ARPROT=0, ARVALID=1, RREADY=0, AWREADY=1, WREADY=1, BRESP=0, BVALID=0, ARREADY=0, ARPROT=0, RDATA=0, RRESP=0, RVALID=1
UVM_INFO driver.sv(37) @ 275: uvm_test_top.env.act.drv [DRV] AW=44/0/1 W=1183513156/1000/1 AR=40/0/0 BREADY=0 RREADY=1
UVM_INFO scoreboard.sv(233) @ 275: uvm_test_top.env.sc [SCOREBOARD] DUT: BRESP=0, RDATA=0, RRESP=0
REF: BRESP=0, RDATA=0, RRESP=0


UVM_INFO sequences.sv(53) @ 275: uvm_test_top.env.act.sqr@@rd_a [SEQ] AWADDR=24,AWPROT=0,AWVALID=0,WDATA=2694808983,WSTRB=1001,WVALID=1,ARADDR=32,ARPROT=0,ARVALID=0,RREADY=0
UVM_INFO sequences.sv(53) @ 275: uvm_test_top.env.act.sqr@@rd_a [SEQ] AWADDR=24,AWPROT=0,AWVALID=0,WDATA=2694808983,WSTRB=1001,WVALID=0,ARADDR=32,ARPROT=0,ARVALID=1,RREADY=0
UVM_INFO monitor.sv(52) @ 285: uvm_test_top.env.act.mon [uvm_test_top.env.act.mon] rst=1, AWADDR=44, AWPROT=0, AWVALID=1, WDATA=1183513156, WSTRB=8, WVALID=1, BREADY=0, ARADDR=40, ARPROT=0, ARVALID=0, RREADY=1, AWREADY=1, WREADY=1, BRESP=0, BVALID=0, ARREADY=0, ARPROT=0, RDATA=0, RRESP=0, RVALID=1
UVM_INFO monitor.sv(52) @ 285: uvm_test_top.env.pass.mon [uvm_test_top.env.pass.mon] rst=1, AWADDR=44, AWPROT=0, AWVALID=1, WDATA=1183513156, WSTRB=8, WVALID=1, BREADY=0, ARADDR=40, ARPROT=0, ARVALID=0, RREADY=1, AWREADY=1, WREADY=1, BRESP=0, BVALID=0, ARREADY=0, ARPROT=0, RDATA=0, RRESP=0, RVALID=1
UVM_INFO driver.sv(37) @ 285: uvm_test_top.env.act.drv [DRV] AW=24/0/0 W=2694808983/1001/0 AR=32/0/1 BREADY=1 RREADY=0
UVM_INFO scoreboard.sv(233) @ 285: uvm_test_top.env.sc [SCOREBOARD] DUT: BRESP=0, RDATA=0, RRESP=0
REF: BRESP=0, RDATA=0, RRESP=0


UVM_INFO sequences.sv(53) @ 285: uvm_test_top.env.act.sqr@@rd_b [SEQ] AWADDR=60,AWPROT=0,AWVALID=0,WDATA=4227707304,WSTRB=10,WVALID=1,ARADDR=20,ARPROT=0,ARVALID=0,RREADY=1
UVM_INFO sequences.sv(53) @ 285: uvm_test_top.env.act.sqr@@rd_b [SEQ] AWADDR=60,AWPROT=0,AWVALID=0,WDATA=4227707304,WSTRB=10,WVALID=0,ARADDR=20,ARPROT=0,ARVALID=1,RREADY=1
UVM_INFO monitor.sv(52) @ 295: uvm_test_top.env.act.mon [uvm_test_top.env.act.mon] rst=1, AWADDR=24, AWPROT=0, AWVALID=0, WDATA=2694808983, WSTRB=9, WVALID=0, BREADY=1, ARADDR=32, ARPROT=0, ARVALID=1, RREADY=0, AWREADY=0, WREADY=0, BRESP=0, BVALID=0, ARREADY=0, ARPROT=0, RDATA=0, RRESP=0, RVALID=0
UVM_INFO monitor.sv(52) @ 295: uvm_test_top.env.pass.mon [uvm_test_top.env.pass.mon] rst=1, AWADDR=24, AWPROT=0, AWVALID=0, WDATA=2694808983, WSTRB=9, WVALID=0, BREADY=1, ARADDR=32, ARPROT=0, ARVALID=1, RREADY=0, AWREADY=0, WREADY=0, BRESP=0, BVALID=0, ARREADY=0, ARPROT=0, RDATA=0, RRESP=0, RVALID=0
UVM_INFO driver.sv(37) @ 295: uvm_test_top.env.act.drv [DRV] AW=60/0/0 W=4227707304/10/0 AR=20/0/1 BREADY=0 RREADY=1
UVM_INFO scoreboard.sv(233) @ 295: uvm_test_top.env.sc [SCOREBOARD] DUT: BRESP=0, RDATA=0, RRESP=0
REF: BRESP=0, RDATA=0, RRESP=0


UVM_INFO sequences.sv(53) @ 295: uvm_test_top.env.act.sqr@@rd_c [SEQ] AWADDR=36,AWPROT=0,AWVALID=1,WDATA=1688631347,WSTRB=1111,WVALID=0,ARADDR=16,ARPROT=0,ARVALID=1,RREADY=1
UVM_INFO sequences.sv(53) @ 295: uvm_test_top.env.act.sqr@@rd_c [SEQ] AWADDR=36,AWPROT=0,AWVALID=0,WDATA=1688631347,WSTRB=1111,WVALID=0,ARADDR=16,ARPROT=0,ARVALID=1,RREADY=1
UVM_INFO monitor.sv(52) @ 305: uvm_test_top.env.act.mon [uvm_test_top.env.act.mon] rst=1, AWADDR=60, AWPROT=0, AWVALID=0, WDATA=4227707304, WSTRB=2, WVALID=0, BREADY=0, ARADDR=20, ARPROT=0, ARVALID=1, RREADY=1, AWREADY=0, WREADY=0, BRESP=0, BVALID=1, ARREADY=1, ARPROT=0, RDATA=0, RRESP=0, RVALID=0
UVM_INFO monitor.sv(52) @ 305: uvm_test_top.env.pass.mon [uvm_test_top.env.pass.mon] rst=1, AWADDR=60, AWPROT=0, AWVALID=0, WDATA=4227707304, WSTRB=2, WVALID=0, BREADY=0, ARADDR=20, ARPROT=0, ARVALID=1, RREADY=1, AWREADY=0, WREADY=0, BRESP=0, BVALID=1, ARREADY=1, ARPROT=0, RDATA=0, RRESP=0, RVALID=0
UVM_INFO driver.sv(37) @ 305: uvm_test_top.env.act.drv [DRV] AW=36/0/0 W=1688631347/1111/0 AR=16/0/1 BREADY=0 RREADY=1
UVM_INFO scoreboard.sv(233) @ 305: uvm_test_top.env.sc [SCOREBOARD] DUT: BRESP=0, RDATA=0, RRESP=0
REF: BRESP=0, RDATA=0, RRESP=0


UVM_INFO sequences.sv(53) @ 305: uvm_test_top.env.act.sqr@@wr_simul [SEQ] AWADDR=28,AWPROT=0,AWVALID=1,WDATA=4004110301,WSTRB=110,WVALID=1,ARADDR=8,ARPROT=0,ARVALID=1,RREADY=0
UVM_INFO sequences.sv(53) @ 305: uvm_test_top.env.act.sqr@@wr_simul [SEQ] AWADDR=28,AWPROT=0,AWVALID=1,WDATA=4004110301,WSTRB=110,WVALID=1,ARADDR=8,ARPROT=0,ARVALID=0,RREADY=0
UVM_INFO monitor.sv(52) @ 315: uvm_test_top.env.act.mon [uvm_test_top.env.act.mon] rst=1, AWADDR=36, AWPROT=0, AWVALID=0, WDATA=1688631347, WSTRB=15, WVALID=0, BREADY=0, ARADDR=16, ARPROT=0, ARVALID=1, RREADY=1, AWREADY=0, WREADY=0, BRESP=0, BVALID=1, ARREADY=0, ARPROT=0, RDATA=0, RRESP=0, RVALID=1
UVM_INFO monitor.sv(52) @ 315: uvm_test_top.env.pass.mon [uvm_test_top.env.pass.mon] rst=1, AWADDR=36, AWPROT=0, AWVALID=0, WDATA=1688631347, WSTRB=15, WVALID=0, BREADY=0, ARADDR=16, ARPROT=0, ARVALID=1, RREADY=1, AWREADY=0, WREADY=0, BRESP=0, BVALID=1, ARREADY=0, ARPROT=0, RDATA=0, RRESP=0, RVALID=1
UVM_INFO driver.sv(37) @ 315: uvm_test_top.env.act.drv [DRV] AW=28/0/1 W=4004110301/110/1 AR=8/0/0 BREADY=0 RREADY=0
UVM_INFO scoreboard.sv(233) @ 315: uvm_test_top.env.sc [SCOREBOARD] DUT: BRESP=0, RDATA=0, RRESP=0
REF: BRESP=0, RDATA=0, RRESP=0


UVM_INFO sequences.sv(53) @ 315: uvm_test_top.env.act.sqr@@wr_rd [SEQ] AWADDR=16,AWPROT=0,AWVALID=1,WDATA=1419619327,WSTRB=1011,WVALID=1,ARADDR=36,ARPROT=0,ARVALID=1,RREADY=1
UVM_INFO sequences.sv(53) @ 315: uvm_test_top.env.act.sqr@@wr_rd [SEQ] AWADDR=16,AWPROT=0,AWVALID=1,WDATA=1419619327,WSTRB=1011,WVALID=1,ARADDR=36,ARPROT=0,ARVALID=1,RREADY=1
UVM_INFO monitor.sv(52) @ 325: uvm_test_top.env.act.mon [uvm_test_top.env.act.mon] rst=1, AWADDR=28, AWPROT=0, AWVALID=1, WDATA=4004110301, WSTRB=6, WVALID=1, BREADY=0, ARADDR=8, ARPROT=0, ARVALID=0, RREADY=0, AWREADY=0, WREADY=0, BRESP=0, BVALID=1, ARREADY=0, ARPROT=0, RDATA=0, RRESP=0, RVALID=0
UVM_INFO monitor.sv(52) @ 325: uvm_test_top.env.pass.mon [uvm_test_top.env.pass.mon] rst=1, AWADDR=28, AWPROT=0, AWVALID=1, WDATA=4004110301, WSTRB=6, WVALID=1, BREADY=0, ARADDR=8, ARPROT=0, ARVALID=0, RREADY=0, AWREADY=0, WREADY=0, BRESP=0, BVALID=1, ARREADY=0, ARPROT=0, RDATA=0, RRESP=0, RVALID=0
UVM_INFO driver.sv(37) @ 325: uvm_test_top.env.act.drv [DRV] AW=16/0/1 W=1419619327/1011/1 AR=36/0/1 BREADY=1 RREADY=1
UVM_INFO scoreboard.sv(233) @ 325: uvm_test_top.env.sc [SCOREBOARD] DUT: BRESP=0, RDATA=0, RRESP=0
REF: BRESP=0, RDATA=0, RRESP=0


UVM_INFO sequences.sv(53) @ 325: uvm_test_top.env.act.sqr@@aw_w [SEQ] AWADDR=4,AWPROT=0,AWVALID=0,WDATA=107997841,WSTRB=100,WVALID=1,ARADDR=44,ARPROT=0,ARVALID=0,RREADY=1
UVM_INFO sequences.sv(53) @ 325: uvm_test_top.env.act.sqr@@aw_w [SEQ] AWADDR=4,AWPROT=0,AWVALID=0,WDATA=107997841,WSTRB=100,WVALID=0,ARADDR=44,ARPROT=0,ARVALID=0,RREADY=1
UVM_INFO monitor.sv(52) @ 335: uvm_test_top.env.act.mon [uvm_test_top.env.act.mon] rst=1, AWADDR=16, AWPROT=0, AWVALID=1, WDATA=1419619327, WSTRB=11, WVALID=1, BREADY=1, ARADDR=36, ARPROT=0, ARVALID=1, RREADY=1, AWREADY=0, WREADY=0, BRESP=0, BVALID=1, ARREADY=1, ARPROT=0, RDATA=0, RRESP=0, RVALID=0
UVM_INFO monitor.sv(52) @ 335: uvm_test_top.env.pass.mon [uvm_test_top.env.pass.mon] rst=1, AWADDR=16, AWPROT=0, AWVALID=1, WDATA=1419619327, WSTRB=11, WVALID=1, BREADY=1, ARADDR=36, ARPROT=0, ARVALID=1, RREADY=1, AWREADY=0, WREADY=0, BRESP=0, BVALID=1, ARREADY=1, ARPROT=0, RDATA=0, RRESP=0, RVALID=0
UVM_INFO driver.sv(37) @ 335: uvm_test_top.env.act.drv [DRV] AW=4/0/0 W=107997841/100/0 AR=44/0/0 BREADY=1 RREADY=1
UVM_INFO scoreboard.sv(233) @ 335: uvm_test_top.env.sc [SCOREBOARD] DUT: BRESP=0, RDATA=0, RRESP=0
REF: BRESP=0, RDATA=0, RRESP=0


UVM_INFO sequences.sv(53) @ 335: uvm_test_top.env.act.sqr@@w_aw [SEQ] AWADDR=12,AWPROT=0,AWVALID=1,WDATA=3388808379,WSTRB=1101,WVALID=1,ARADDR=20,ARPROT=0,ARVALID=0,RREADY=1
UVM_INFO sequences.sv(53) @ 335: uvm_test_top.env.act.sqr@@w_aw [SEQ] AWADDR=12,AWPROT=0,AWVALID=0,WDATA=3388808379,WSTRB=1101,WVALID=0,ARADDR=20,ARPROT=0,ARVALID=0,RREADY=1
UVM_INFO monitor.sv(52) @ 345: uvm_test_top.env.act.mon [uvm_test_top.env.act.mon] rst=1, AWADDR=4, AWPROT=0, AWVALID=0, WDATA=107997841, WSTRB=4, WVALID=0, BREADY=1, ARADDR=44, ARPROT=0, ARVALID=0, RREADY=1, AWREADY=0, WREADY=0, BRESP=0, BVALID=0, ARREADY=0, ARPROT=0, RDATA=0, RRESP=0, RVALID=1
UVM_INFO monitor.sv(52) @ 345: uvm_test_top.env.pass.mon [uvm_test_top.env.pass.mon] rst=1, AWADDR=4, AWPROT=0, AWVALID=0, WDATA=107997841, WSTRB=4, WVALID=0, BREADY=1, ARADDR=44, ARPROT=0, ARVALID=0, RREADY=1, AWREADY=0, WREADY=0, BRESP=0, BVALID=0, ARREADY=0, ARPROT=0, RDATA=0, RRESP=0, RVALID=1
UVM_INFO driver.sv(37) @ 345: uvm_test_top.env.act.drv [DRV] AW=12/0/0 W=3388808379/1101/0 AR=20/0/0 BREADY=1 RREADY=1
UVM_INFO scoreboard.sv(233) @ 345: uvm_test_top.env.sc [SCOREBOARD] DUT: BRESP=0, RDATA=0, RRESP=0
REF: BRESP=0, RDATA=0, RRESP=0


UVM_INFO sequences.sv(53) @ 345: uvm_test_top.env.act.sqr@@bp [SEQ] AWADDR=60,AWPROT=0,AWVALID=1,WDATA=2443245081,WSTRB=1,WVALID=1,ARADDR=52,ARPROT=0,ARVALID=0,RREADY=0
UVM_INFO sequences.sv(53) @ 345: uvm_test_top.env.act.sqr@@bp [SEQ] AWADDR=60,AWPROT=0,AWVALID=1,WDATA=2443245081,WSTRB=1,WVALID=1,ARADDR=52,ARPROT=0,ARVALID=0,RREADY=0
UVM_INFO monitor.sv(52) @ 355: uvm_test_top.env.act.mon [uvm_test_top.env.act.mon] rst=1, AWADDR=12, AWPROT=0, AWVALID=0, WDATA=3388808379, WSTRB=13, WVALID=0, BREADY=1, ARADDR=20, ARPROT=0, ARVALID=0, RREADY=1, AWREADY=1, WREADY=1, BRESP=0, BVALID=0, ARREADY=0, ARPROT=0, RDATA=0, RRESP=0, RVALID=0
UVM_INFO monitor.sv(52) @ 355: uvm_test_top.env.pass.mon [uvm_test_top.env.pass.mon] rst=1, AWADDR=12, AWPROT=0, AWVALID=0, WDATA=3388808379, WSTRB=13, WVALID=0, BREADY=1, ARADDR=20, ARPROT=0, ARVALID=0, RREADY=1, AWREADY=1, WREADY=1, BRESP=0, BVALID=0, ARREADY=0, ARPROT=0, RDATA=0, RRESP=0, RVALID=0
UVM_INFO driver.sv(37) @ 355: uvm_test_top.env.act.drv [DRV] AW=60/0/1 W=2443245081/1/1 AR=52/0/0 BREADY=0 RREADY=0
UVM_INFO scoreboard.sv(233) @ 355: uvm_test_top.env.sc [SCOREBOARD] DUT: BRESP=0, RDATA=0, RRESP=0
REF: BRESP=0, RDATA=0, RRESP=0


UVM_INFO sequences.sv(53) @ 355: uvm_test_top.env.act.sqr@@seq [SEQ] AWADDR=44,AWPROT=0,AWVALID=1,WDATA=1183513156,WSTRB=1000,WVALID=1,ARADDR=32,ARPROT=0,ARVALID=1,RREADY=0
UVM_INFO monitor.sv(52) @ 365: uvm_test_top.env.act.mon [uvm_test_top.env.act.mon] rst=1, AWADDR=60, AWPROT=0, AWVALID=1, WDATA=2443245081, WSTRB=1, WVALID=1, BREADY=0, ARADDR=52, ARPROT=0, ARVALID=0, RREADY=0, AWREADY=1, WREADY=1, BRESP=0, BVALID=0, ARREADY=1, ARPROT=0, RDATA=0, RRESP=0, RVALID=0
UVM_INFO monitor.sv(52) @ 365: uvm_test_top.env.pass.mon [uvm_test_top.env.pass.mon] rst=1, AWADDR=60, AWPROT=0, AWVALID=1, WDATA=2443245081, WSTRB=1, WVALID=1, BREADY=0, ARADDR=52, ARPROT=0, ARVALID=0, RREADY=0, AWREADY=1, WREADY=1, BRESP=0, BVALID=0, ARREADY=1, ARPROT=0, RDATA=0, RRESP=0, RVALID=0
UVM_INFO driver.sv(37) @ 365: uvm_test_top.env.act.drv [DRV] AW=44/0/1 W=1183513156/1000/1 AR=32/0/1 BREADY=0 RREADY=0
UVM_INFO scoreboard.sv(233) @ 365: uvm_test_top.env.sc [SCOREBOARD] DUT: BRESP=0, RDATA=0, RRESP=0
REF: BRESP=0, RDATA=0, RRESP=0


UVM_INFO sequences.sv(53) @ 365: uvm_test_top.env.act.sqr@@rd_a [SEQ] AWADDR=40,AWPROT=0,AWVALID=0,WDATA=1200274306,WSTRB=101,WVALID=0,ARADDR=56,ARPROT=0,ARVALID=0,RREADY=0
UVM_INFO sequences.sv(53) @ 365: uvm_test_top.env.act.sqr@@rd_a [SEQ] AWADDR=40,AWPROT=0,AWVALID=0,WDATA=1200274306,WSTRB=101,WVALID=0,ARADDR=56,ARPROT=0,ARVALID=1,RREADY=0
UVM_INFO monitor.sv(52) @ 375: uvm_test_top.env.act.mon [uvm_test_top.env.act.mon] rst=1, AWADDR=44, AWPROT=0, AWVALID=1, WDATA=1183513156, WSTRB=8, WVALID=1, BREADY=0, ARADDR=32, ARPROT=0, ARVALID=1, RREADY=0, AWREADY=1, WREADY=1, BRESP=0, BVALID=0, ARREADY=1, ARPROT=0, RDATA=0, RRESP=0, RVALID=0
UVM_INFO monitor.sv(52) @ 375: uvm_test_top.env.pass.mon [uvm_test_top.env.pass.mon] rst=1, AWADDR=44, AWPROT=0, AWVALID=1, WDATA=1183513156, WSTRB=8, WVALID=1, BREADY=0, ARADDR=32, ARPROT=0, ARVALID=1, RREADY=0, AWREADY=1, WREADY=1, BRESP=0, BVALID=0, ARREADY=1, ARPROT=0, RDATA=0, RRESP=0, RVALID=0
UVM_INFO driver.sv(37) @ 375: uvm_test_top.env.act.drv [DRV] AW=40/0/0 W=1200274306/101/0 AR=56/0/1 BREADY=1 RREADY=0
UVM_INFO scoreboard.sv(233) @ 375: uvm_test_top.env.sc [SCOREBOARD] DUT: BRESP=0, RDATA=0, RRESP=0
REF: BRESP=0, RDATA=0, RRESP=0


UVM_INFO sequences.sv(53) @ 375: uvm_test_top.env.act.sqr@@rd_b [SEQ] AWADDR=48,AWPROT=0,AWVALID=1,WDATA=2795842782,WSTRB=1111,WVALID=0,ARADDR=4,ARPROT=0,ARVALID=0,RREADY=0
UVM_INFO sequences.sv(53) @ 375: uvm_test_top.env.act.sqr@@rd_b [SEQ] AWADDR=48,AWPROT=0,AWVALID=0,WDATA=2795842782,WSTRB=1111,WVALID=0,ARADDR=4,ARPROT=0,ARVALID=1,RREADY=0
UVM_INFO monitor.sv(52) @ 385: uvm_test_top.env.act.mon [uvm_test_top.env.act.mon] rst=1, AWADDR=40, AWPROT=0, AWVALID=0, WDATA=1200274306, WSTRB=5, WVALID=0, BREADY=1, ARADDR=56, ARPROT=0, ARVALID=1, RREADY=0, AWREADY=0, WREADY=0, BRESP=0, BVALID=0, ARREADY=0, ARPROT=0, RDATA=0, RRESP=0, RVALID=1
UVM_INFO monitor.sv(52) @ 385: uvm_test_top.env.pass.mon [uvm_test_top.env.pass.mon] rst=1, AWADDR=40, AWPROT=0, AWVALID=0, WDATA=1200274306, WSTRB=5, WVALID=0, BREADY=1, ARADDR=56, ARPROT=0, ARVALID=1, RREADY=0, AWREADY=0, WREADY=0, BRESP=0, BVALID=0, ARREADY=0, ARPROT=0, RDATA=0, RRESP=0, RVALID=1
UVM_INFO driver.sv(37) @ 385: uvm_test_top.env.act.drv [DRV] AW=48/0/0 W=2795842782/1111/0 AR=4/0/1 BREADY=0 RREADY=0
UVM_INFO scoreboard.sv(233) @ 385: uvm_test_top.env.sc [SCOREBOARD] DUT: BRESP=0, RDATA=0, RRESP=0
REF: BRESP=0, RDATA=0, RRESP=0


UVM_INFO sequences.sv(53) @ 385: uvm_test_top.env.act.sqr@@rd_c [SEQ] AWADDR=4,AWPROT=0,AWVALID=1,WDATA=3048542327,WSTRB=1100,WVALID=1,ARADDR=16,ARPROT=0,ARVALID=1,RREADY=1
UVM_INFO sequences.sv(53) @ 385: uvm_test_top.env.act.sqr@@rd_c [SEQ] AWADDR=4,AWPROT=0,AWVALID=0,WDATA=3048542327,WSTRB=1100,WVALID=0,ARADDR=16,ARPROT=0,ARVALID=1,RREADY=1
UVM_INFO monitor.sv(52) @ 395: uvm_test_top.env.act.mon [uvm_test_top.env.act.mon] rst=1, AWADDR=48, AWPROT=0, AWVALID=0, WDATA=2795842782, WSTRB=15, WVALID=0, BREADY=0, ARADDR=4, ARPROT=0, ARVALID=1, RREADY=0, AWREADY=0, WREADY=0, BRESP=2, BVALID=1, ARREADY=0, ARPROT=0, RDATA=0, RRESP=0, RVALID=1
UVM_INFO monitor.sv(52) @ 395: uvm_test_top.env.pass.mon [uvm_test_top.env.pass.mon] rst=1, AWADDR=48, AWPROT=0, AWVALID=0, WDATA=2795842782, WSTRB=15, WVALID=0, BREADY=0, ARADDR=4, ARPROT=0, ARVALID=1, RREADY=0, AWREADY=0, WREADY=0, BRESP=2, BVALID=1, ARREADY=0, ARPROT=0, RDATA=0, RRESP=0, RVALID=1
UVM_INFO driver.sv(37) @ 395: uvm_test_top.env.act.drv [DRV] AW=4/0/0 W=3048542327/1100/0 AR=16/0/1 BREADY=0 RREADY=1
UVM_INFO /fetools/synopsys/installed_tools/vcs/vcs/Q-2020.03-SP2-8/etc/uvm-1.2/base/uvm_comparer.svh(351) @ 395: reporter [MISCMP] Miscompare for tr.BRESP: lhs = 'h0 : rhs = 'h2
UVM_INFO /fetools/synopsys/installed_tools/vcs/vcs/Q-2020.03-SP2-8/etc/uvm-1.2/base/uvm_comparer.svh(382) @ 395: reporter [MISCMP] 1 Miscompare(s) for object tr@1878 vs. tr@1844
UVM_INFO scoreboard.sv(242) @ 395: uvm_test_top.env.sc [SCOREBOARD] DUT: BRESP=2, RDATA=0, RRESP=0
REF: BRESP=0, RDATA=0, RRESP=0
_______________________________________________________________________________________________________________________
_
UVM_INFO sequences.sv(53) @ 395: uvm_test_top.env.act.sqr@@wr_simul [SEQ] AWADDR=28,AWPROT=0,AWVALID=1,WDATA=4004110301,WSTRB=110,WVALID=1,ARADDR=20,ARPROT=0,ARVALID=1,RREADY=1
UVM_INFO sequences.sv(53) @ 395: uvm_test_top.env.act.sqr@@wr_simul [SEQ] AWADDR=28,AWPROT=0,AWVALID=1,WDATA=4004110301,WSTRB=110,WVALID=1,ARADDR=20,ARPROT=0,ARVALID=0,RREADY=1
UVM_INFO monitor.sv(52) @ 405: uvm_test_top.env.act.mon [uvm_test_top.env.act.mon] rst=1, AWADDR=4, AWPROT=0, AWVALID=0, WDATA=3048542327, WSTRB=12, WVALID=0, BREADY=0, ARADDR=16, ARPROT=0, ARVALID=1, RREADY=1, AWREADY=0, WREADY=0, BRESP=2, BVALID=1, ARREADY=0, ARPROT=0, RDATA=0, RRESP=0, RVALID=1
UVM_INFO monitor.sv(52) @ 405: uvm_test_top.env.pass.mon [uvm_test_top.env.pass.mon] rst=1, AWADDR=4, AWPROT=0, AWVALID=0, WDATA=3048542327, WSTRB=12, WVALID=0, BREADY=0, ARADDR=16, ARPROT=0, ARVALID=1, RREADY=1, AWREADY=0, WREADY=0, BRESP=2, BVALID=1, ARREADY=0, ARPROT=0, RDATA=0, RRESP=0, RVALID=1
UVM_INFO driver.sv(37) @ 405: uvm_test_top.env.act.drv [DRV] AW=28/0/1 W=4004110301/110/1 AR=20/0/0 BREADY=0 RREADY=1
UVM_INFO /fetools/synopsys/installed_tools/vcs/vcs/Q-2020.03-SP2-8/etc/uvm-1.2/base/uvm_comparer.svh(351) @ 405: reporter [MISCMP] Miscompare for tr.BRESP: lhs = 'h0 : rhs = 'h2
UVM_INFO /fetools/synopsys/installed_tools/vcs/vcs/Q-2020.03-SP2-8/etc/uvm-1.2/base/uvm_comparer.svh(382) @ 405: reporter [MISCMP] 1 Miscompare(s) for object tr@1906 vs. tr@1872
UVM_INFO scoreboard.sv(242) @ 405: uvm_test_top.env.sc [SCOREBOARD] DUT: BRESP=2, RDATA=0, RRESP=0
REF: BRESP=0, RDATA=0, RRESP=0
_______________________________________________________________________________________________________________________
_
UVM_INFO sequences.sv(53) @ 405: uvm_test_top.env.act.sqr@@wr_rd [SEQ] AWADDR=16,AWPROT=0,AWVALID=1,WDATA=1419619327,WSTRB=1011,WVALID=1,ARADDR=52,ARPROT=0,ARVALID=1,RREADY=0
UVM_INFO sequences.sv(53) @ 405: uvm_test_top.env.act.sqr@@wr_rd [SEQ] AWADDR=16,AWPROT=0,AWVALID=1,WDATA=1419619327,WSTRB=1011,WVALID=1,ARADDR=52,ARPROT=0,ARVALID=1,RREADY=0
UVM_INFO monitor.sv(52) @ 415: uvm_test_top.env.act.mon [uvm_test_top.env.act.mon] rst=1, AWADDR=28, AWPROT=0, AWVALID=1, WDATA=4004110301, WSTRB=6, WVALID=1, BREADY=0, ARADDR=20, ARPROT=0, ARVALID=0, RREADY=1, AWREADY=0, WREADY=0, BRESP=2, BVALID=1, ARREADY=0, ARPROT=0, RDATA=0, RRESP=0, RVALID=0
UVM_INFO monitor.sv(52) @ 415: uvm_test_top.env.pass.mon [uvm_test_top.env.pass.mon] rst=1, AWADDR=28, AWPROT=0, AWVALID=1, WDATA=4004110301, WSTRB=6, WVALID=1, BREADY=0, ARADDR=20, ARPROT=0, ARVALID=0, RREADY=1, AWREADY=0, WREADY=0, BRESP=2, BVALID=1, ARREADY=0, ARPROT=0, RDATA=0, RRESP=0, RVALID=0
UVM_INFO driver.sv(37) @ 415: uvm_test_top.env.act.drv [DRV] AW=16/0/1 W=1419619327/1011/1 AR=52/0/1 BREADY=1 RREADY=0
UVM_INFO /fetools/synopsys/installed_tools/vcs/vcs/Q-2020.03-SP2-8/etc/uvm-1.2/base/uvm_comparer.svh(351) @ 415: reporter [MISCMP] Miscompare for tr.BRESP: lhs = 'h0 : rhs = 'h2
UVM_INFO /fetools/synopsys/installed_tools/vcs/vcs/Q-2020.03-SP2-8/etc/uvm-1.2/base/uvm_comparer.svh(382) @ 415: reporter [MISCMP] 1 Miscompare(s) for object tr@1938 vs. tr@1900
UVM_INFO scoreboard.sv(242) @ 415: uvm_test_top.env.sc [SCOREBOARD] DUT: BRESP=2, RDATA=0, RRESP=0
REF: BRESP=0, RDATA=0, RRESP=0
_______________________________________________________________________________________________________________________
_
UVM_INFO sequences.sv(53) @ 415: uvm_test_top.env.act.sqr@@aw_w [SEQ] AWADDR=4,AWPROT=0,AWVALID=0,WDATA=2374878954,WSTRB=0,WVALID=0,ARADDR=52,ARPROT=0,ARVALID=1,RREADY=0
UVM_INFO sequences.sv(53) @ 415: uvm_test_top.env.act.sqr@@aw_w [SEQ] AWADDR=4,AWPROT=0,AWVALID=0,WDATA=2374878954,WSTRB=0,WVALID=0,ARADDR=52,ARPROT=0,ARVALID=0,RREADY=0
UVM_INFO monitor.sv(52) @ 425: uvm_test_top.env.act.mon [uvm_test_top.env.act.mon] rst=1, AWADDR=16, AWPROT=0, AWVALID=1, WDATA=1419619327, WSTRB=11, WVALID=1, BREADY=1, ARADDR=52, ARPROT=0, ARVALID=1, RREADY=0, AWREADY=0, WREADY=0, BRESP=2, BVALID=1, ARREADY=1, ARPROT=0, RDATA=0, RRESP=0, RVALID=0
UVM_INFO monitor.sv(52) @ 425: uvm_test_top.env.pass.mon [uvm_test_top.env.pass.mon] rst=1, AWADDR=16, AWPROT=0, AWVALID=1, WDATA=1419619327, WSTRB=11, WVALID=1, BREADY=1, ARADDR=52, ARPROT=0, ARVALID=1, RREADY=0, AWREADY=0, WREADY=0, BRESP=2, BVALID=1, ARREADY=1, ARPROT=0, RDATA=0, RRESP=0, RVALID=0
UVM_INFO driver.sv(37) @ 425: uvm_test_top.env.act.drv [DRV] AW=4/0/0 W=2374878954/0/0 AR=52/0/0 BREADY=1 RREADY=0
UVM_INFO /fetools/synopsys/installed_tools/vcs/vcs/Q-2020.03-SP2-8/etc/uvm-1.2/base/uvm_comparer.svh(351) @ 425: reporter [MISCMP] Miscompare for tr.BRESP: lhs = 'h0 : rhs = 'h2
UVM_INFO /fetools/synopsys/installed_tools/vcs/vcs/Q-2020.03-SP2-8/etc/uvm-1.2/base/uvm_comparer.svh(382) @ 425: reporter [MISCMP] 1 Miscompare(s) for object tr@1970 vs. tr@1932
UVM_INFO scoreboard.sv(242) @ 425: uvm_test_top.env.sc [SCOREBOARD] DUT: BRESP=2, RDATA=0, RRESP=0
REF: BRESP=0, RDATA=0, RRESP=0
_______________________________________________________________________________________________________________________
_
UVM_INFO sequences.sv(53) @ 425: uvm_test_top.env.act.sqr@@w_aw [SEQ] AWADDR=56,AWPROT=0,AWVALID=1,WDATA=3281518561,WSTRB=1110,WVALID=0,ARADDR=4,ARPROT=0,ARVALID=0,RREADY=0
UVM_INFO sequences.sv(53) @ 425: uvm_test_top.env.act.sqr@@w_aw [SEQ] AWADDR=56,AWPROT=0,AWVALID=0,WDATA=3281518561,WSTRB=1110,WVALID=0,ARADDR=4,ARPROT=0,ARVALID=0,RREADY=0
UVM_INFO monitor.sv(52) @ 435: uvm_test_top.env.act.mon [uvm_test_top.env.act.mon] rst=1, AWADDR=4, AWPROT=0, AWVALID=0, WDATA=2374878954, WSTRB=0, WVALID=0, BREADY=1, ARADDR=52, ARPROT=0, ARVALID=0, RREADY=0, AWREADY=0, WREADY=0, BRESP=2, BVALID=0, ARREADY=0, ARPROT=0, RDATA=0, RRESP=2, RVALID=1
UVM_INFO monitor.sv(52) @ 435: uvm_test_top.env.pass.mon [uvm_test_top.env.pass.mon] rst=1, AWADDR=4, AWPROT=0, AWVALID=0, WDATA=2374878954, WSTRB=0, WVALID=0, BREADY=1, ARADDR=52, ARPROT=0, ARVALID=0, RREADY=0, AWREADY=0, WREADY=0, BRESP=2, BVALID=0, ARREADY=0, ARPROT=0, RDATA=0, RRESP=2, RVALID=1
UVM_INFO driver.sv(37) @ 435: uvm_test_top.env.act.drv [DRV] AW=56/0/0 W=3281518561/1110/0 AR=4/0/0 BREADY=1 RREADY=0
UVM_INFO /fetools/synopsys/installed_tools/vcs/vcs/Q-2020.03-SP2-8/etc/uvm-1.2/base/uvm_comparer.svh(351) @ 435: reporter [MISCMP] Miscompare for tr.BRESP: lhs = 'h0 : rhs = 'h2
UVM_INFO /fetools/synopsys/installed_tools/vcs/vcs/Q-2020.03-SP2-8/etc/uvm-1.2/base/uvm_comparer.svh(382) @ 435: reporter [MISCMP] 1 Miscompare(s) for object tr@2002 vs. tr@1964
UVM_INFO scoreboard.sv(242) @ 435: uvm_test_top.env.sc [SCOREBOARD] DUT: BRESP=2, RDATA=0, RRESP=2
REF: BRESP=0, RDATA=0, RRESP=2
_______________________________________________________________________________________________________________________
_
UVM_INFO sequences.sv(53) @ 435: uvm_test_top.env.act.sqr@@bp [SEQ] AWADDR=60,AWPROT=0,AWVALID=1,WDATA=2443245081,WSTRB=1,WVALID=1,ARADDR=12,ARPROT=0,ARVALID=1,RREADY=0
UVM_INFO sequences.sv(53) @ 435: uvm_test_top.env.act.sqr@@bp [SEQ] AWADDR=60,AWPROT=0,AWVALID=1,WDATA=2443245081,WSTRB=1,WVALID=1,ARADDR=12,ARPROT=0,ARVALID=1,RREADY=0
UVM_INFO monitor.sv(52) @ 445: uvm_test_top.env.act.mon [uvm_test_top.env.act.mon] rst=1, AWADDR=56, AWPROT=0, AWVALID=0, WDATA=3281518561, WSTRB=14, WVALID=0, BREADY=1, ARADDR=4, ARPROT=0, ARVALID=0, RREADY=0, AWREADY=1, WREADY=1, BRESP=2, BVALID=0, ARREADY=0, ARPROT=0, RDATA=0, RRESP=2, RVALID=1
UVM_INFO monitor.sv(52) @ 445: uvm_test_top.env.pass.mon [uvm_test_top.env.pass.mon] rst=1, AWADDR=56, AWPROT=0, AWVALID=0, WDATA=3281518561, WSTRB=14, WVALID=0, BREADY=1, ARADDR=4, ARPROT=0, ARVALID=0, RREADY=0, AWREADY=1, WREADY=1, BRESP=2, BVALID=0, ARREADY=0, ARPROT=0, RDATA=0, RRESP=2, RVALID=1
UVM_INFO driver.sv(37) @ 445: uvm_test_top.env.act.drv [DRV] AW=60/0/1 W=2443245081/1/1 AR=12/0/1 BREADY=0 RREADY=0
UVM_INFO /fetools/synopsys/installed_tools/vcs/vcs/Q-2020.03-SP2-8/etc/uvm-1.2/base/uvm_comparer.svh(351) @ 445: reporter [MISCMP] Miscompare for tr.BRESP: lhs = 'h0 : rhs = 'h2
UVM_INFO /fetools/synopsys/installed_tools/vcs/vcs/Q-2020.03-SP2-8/etc/uvm-1.2/base/uvm_comparer.svh(382) @ 445: reporter [MISCMP] 1 Miscompare(s) for object tr@2034 vs. tr@1996
UVM_INFO scoreboard.sv(242) @ 445: uvm_test_top.env.sc [SCOREBOARD] DUT: BRESP=2, RDATA=0, RRESP=2
REF: BRESP=0, RDATA=0, RRESP=2
_______________________________________________________________________________________________________________________
_
UVM_INFO sequences.sv(53) @ 445: uvm_test_top.env.act.sqr@@seq [SEQ] AWADDR=16,AWPROT=0,AWVALID=0,WDATA=521361938,WSTRB=110,WVALID=0,ARADDR=56,ARPROT=0,ARVALID=1,RREADY=0
UVM_INFO monitor.sv(52) @ 455: uvm_test_top.env.act.mon [uvm_test_top.env.act.mon] rst=1, AWADDR=60, AWPROT=0, AWVALID=1, WDATA=2443245081, WSTRB=1, WVALID=1, BREADY=0, ARADDR=12, ARPROT=0, ARVALID=1, RREADY=0, AWREADY=1, WREADY=1, BRESP=2, BVALID=0, ARREADY=0, ARPROT=0, RDATA=0, RRESP=2, RVALID=1
UVM_INFO monitor.sv(52) @ 455: uvm_test_top.env.pass.mon [uvm_test_top.env.pass.mon] rst=1, AWADDR=60, AWPROT=0, AWVALID=1, WDATA=2443245081, WSTRB=1, WVALID=1, BREADY=0, ARADDR=12, ARPROT=0, ARVALID=1, RREADY=0, AWREADY=1, WREADY=1, BRESP=2, BVALID=0, ARREADY=0, ARPROT=0, RDATA=0, RRESP=2, RVALID=1
UVM_INFO driver.sv(37) @ 455: uvm_test_top.env.act.drv [DRV] AW=16/0/0 W=521361938/110/0 AR=56/0/1 BREADY=0 RREADY=0
UVM_INFO /fetools/synopsys/installed_tools/vcs/vcs/Q-2020.03-SP2-8/etc/uvm-1.2/base/uvm_comparer.svh(351) @ 455: reporter [MISCMP] Miscompare for tr.BRESP: lhs = 'h0 : rhs = 'h2
UVM_INFO /fetools/synopsys/installed_tools/vcs/vcs/Q-2020.03-SP2-8/etc/uvm-1.2/base/uvm_comparer.svh(382) @ 455: reporter [MISCMP] 1 Miscompare(s) for object tr@2066 vs. tr@2028
UVM_INFO scoreboard.sv(242) @ 455: uvm_test_top.env.sc [SCOREBOARD] DUT: BRESP=2, RDATA=0, RRESP=2
REF: BRESP=0, RDATA=0, RRESP=2
_______________________________________________________________________________________________________________________
_
UVM_INFO sequences.sv(53) @ 455: uvm_test_top.env.act.sqr@@rd_a [SEQ] AWADDR=52,AWPROT=0,AWVALID=0,WDATA=1875036257,WSTRB=0,WVALID=0,ARADDR=56,ARPROT=0,ARVALID=1,RREADY=1
UVM_INFO sequences.sv(53) @ 455: uvm_test_top.env.act.sqr@@rd_a [SEQ] AWADDR=52,AWPROT=0,AWVALID=0,WDATA=1875036257,WSTRB=0,WVALID=0,ARADDR=56,ARPROT=0,ARVALID=1,RREADY=1
UVM_INFO monitor.sv(52) @ 465: uvm_test_top.env.act.mon [uvm_test_top.env.act.mon] rst=1, AWADDR=16, AWPROT=0, AWVALID=0, WDATA=521361938, WSTRB=6, WVALID=0, BREADY=0, ARADDR=56, ARPROT=0, ARVALID=1, RREADY=0, AWREADY=1, WREADY=1, BRESP=2, BVALID=0, ARREADY=0, ARPROT=0, RDATA=0, RRESP=2, RVALID=1
UVM_INFO monitor.sv(52) @ 465: uvm_test_top.env.pass.mon [uvm_test_top.env.pass.mon] rst=1, AWADDR=16, AWPROT=0, AWVALID=0, WDATA=521361938, WSTRB=6, WVALID=0, BREADY=0, ARADDR=56, ARPROT=0, ARVALID=1, RREADY=0, AWREADY=1, WREADY=1, BRESP=2, BVALID=0, ARREADY=0, ARPROT=0, RDATA=0, RRESP=2, RVALID=1
UVM_INFO driver.sv(37) @ 465: uvm_test_top.env.act.drv [DRV] AW=52/0/0 W=1875036257/0/0 AR=56/0/1 BREADY=0 RREADY=1
UVM_INFO /fetools/synopsys/installed_tools/vcs/vcs/Q-2020.03-SP2-8/etc/uvm-1.2/base/uvm_comparer.svh(351) @ 465: reporter [MISCMP] Miscompare for tr.BRESP: lhs = 'h0 : rhs = 'h2
UVM_INFO /fetools/synopsys/installed_tools/vcs/vcs/Q-2020.03-SP2-8/etc/uvm-1.2/base/uvm_comparer.svh(382) @ 465: reporter [MISCMP] 1 Miscompare(s) for object tr@2096 vs. tr@2060
UVM_INFO scoreboard.sv(242) @ 465: uvm_test_top.env.sc [SCOREBOARD] DUT: BRESP=2, RDATA=0, RRESP=2
REF: BRESP=0, RDATA=0, RRESP=2
_______________________________________________________________________________________________________________________
_
UVM_INFO sequences.sv(53) @ 465: uvm_test_top.env.act.sqr@@rd_b [SEQ] AWADDR=36,AWPROT=0,AWVALID=1,WDATA=4088170937,WSTRB=11,WVALID=0,ARADDR=4,ARPROT=0,ARVALID=0,RREADY=1
UVM_INFO sequences.sv(53) @ 465: uvm_test_top.env.act.sqr@@rd_b [SEQ] AWADDR=36,AWPROT=0,AWVALID=0,WDATA=4088170937,WSTRB=11,WVALID=0,ARADDR=4,ARPROT=0,ARVALID=1,RREADY=1
UVM_INFO monitor.sv(52) @ 475: uvm_test_top.env.act.mon [uvm_test_top.env.act.mon] rst=1, AWADDR=52, AWPROT=0, AWVALID=0, WDATA=1875036257, WSTRB=0, WVALID=0, BREADY=0, ARADDR=56, ARPROT=0, ARVALID=1, RREADY=1, AWREADY=0, WREADY=1, BRESP=2, BVALID=0, ARREADY=0, ARPROT=0, RDATA=0, RRESP=2, RVALID=1
UVM_INFO monitor.sv(52) @ 475: uvm_test_top.env.pass.mon [uvm_test_top.env.pass.mon] rst=1, AWADDR=52, AWPROT=0, AWVALID=0, WDATA=1875036257, WSTRB=0, WVALID=0, BREADY=0, ARADDR=56, ARPROT=0, ARVALID=1, RREADY=1, AWREADY=0, WREADY=1, BRESP=2, BVALID=0, ARREADY=0, ARPROT=0, RDATA=0, RRESP=2, RVALID=1
UVM_INFO driver.sv(37) @ 475: uvm_test_top.env.act.drv [DRV] AW=36/0/0 W=4088170937/11/0 AR=4/0/1 BREADY=1 RREADY=1
UVM_INFO /fetools/synopsys/installed_tools/vcs/vcs/Q-2020.03-SP2-8/etc/uvm-1.2/base/uvm_comparer.svh(351) @ 475: reporter [MISCMP] Miscompare for tr.BRESP: lhs = 'h0 : rhs = 'h2
UVM_INFO /fetools/synopsys/installed_tools/vcs/vcs/Q-2020.03-SP2-8/etc/uvm-1.2/base/uvm_comparer.svh(382) @ 475: reporter [MISCMP] 1 Miscompare(s) for object tr@2128 vs. tr@2090
UVM_INFO scoreboard.sv(242) @ 475: uvm_test_top.env.sc [SCOREBOARD] DUT: BRESP=2, RDATA=0, RRESP=2
REF: BRESP=0, RDATA=0, RRESP=2
_______________________________________________________________________________________________________________________
_
UVM_INFO sequences.sv(53) @ 475: uvm_test_top.env.act.sqr@@rd_c [SEQ] AWADDR=60,AWPROT=0,AWVALID=0,WDATA=945804911,WSTRB=1000,WVALID=0,ARADDR=48,ARPROT=0,ARVALID=0,RREADY=1
UVM_INFO sequences.sv(53) @ 475: uvm_test_top.env.act.sqr@@rd_c [SEQ] AWADDR=60,AWPROT=0,AWVALID=0,WDATA=945804911,WSTRB=1000,WVALID=0,ARADDR=48,ARPROT=0,ARVALID=1,RREADY=1
UVM_INFO monitor.sv(52) @ 485: uvm_test_top.env.act.mon [uvm_test_top.env.act.mon] rst=1, AWADDR=36, AWPROT=0, AWVALID=0, WDATA=4088170937, WSTRB=3, WVALID=0, BREADY=1, ARADDR=4, ARPROT=0, ARVALID=1, RREADY=1, AWREADY=0, WREADY=1, BRESP=2, BVALID=0, ARREADY=0, ARPROT=0, RDATA=0, RRESP=2, RVALID=0
UVM_INFO monitor.sv(52) @ 485: uvm_test_top.env.pass.mon [uvm_test_top.env.pass.mon] rst=1, AWADDR=36, AWPROT=0, AWVALID=0, WDATA=4088170937, WSTRB=3, WVALID=0, BREADY=1, ARADDR=4, ARPROT=0, ARVALID=1, RREADY=1, AWREADY=0, WREADY=1, BRESP=2, BVALID=0, ARREADY=0, ARPROT=0, RDATA=0, RRESP=2, RVALID=0
UVM_INFO driver.sv(37) @ 485: uvm_test_top.env.act.drv [DRV] AW=60/0/0 W=945804911/1000/0 AR=48/0/1 BREADY=0 RREADY=1
UVM_INFO /fetools/synopsys/installed_tools/vcs/vcs/Q-2020.03-SP2-8/etc/uvm-1.2/base/uvm_comparer.svh(351) @ 485: reporter [MISCMP] Miscompare for tr.BRESP: lhs = 'h0 : rhs = 'h2
UVM_INFO /fetools/synopsys/installed_tools/vcs/vcs/Q-2020.03-SP2-8/etc/uvm-1.2/base/uvm_comparer.svh(382) @ 485: reporter [MISCMP] 1 Miscompare(s) for object tr@2160 vs. tr@2122
UVM_INFO scoreboard.sv(242) @ 485: uvm_test_top.env.sc [SCOREBOARD] DUT: BRESP=2, RDATA=0, RRESP=2
REF: BRESP=0, RDATA=0, RRESP=2
_______________________________________________________________________________________________________________________
_
UVM_INFO sequences.sv(53) @ 485: uvm_test_top.env.act.sqr@@wr_simul [SEQ] AWADDR=28,AWPROT=0,AWVALID=1,WDATA=4004110301,WSTRB=110,WVALID=1,ARADDR=36,ARPROT=0,ARVALID=1,RREADY=0
UVM_INFO sequences.sv(53) @ 485: uvm_test_top.env.act.sqr@@wr_simul [SEQ] AWADDR=28,AWPROT=0,AWVALID=1,WDATA=4004110301,WSTRB=110,WVALID=1,ARADDR=36,ARPROT=0,ARVALID=0,RREADY=0
UVM_INFO monitor.sv(52) @ 495: uvm_test_top.env.act.mon [uvm_test_top.env.act.mon] rst=1, AWADDR=60, AWPROT=0, AWVALID=0, WDATA=945804911, WSTRB=8, WVALID=0, BREADY=0, ARADDR=48, ARPROT=0, ARVALID=1, RREADY=1, AWREADY=0, WREADY=1, BRESP=2, BVALID=0, ARREADY=1, ARPROT=0, RDATA=0, RRESP=2, RVALID=0
UVM_INFO monitor.sv(52) @ 495: uvm_test_top.env.pass.mon [uvm_test_top.env.pass.mon] rst=1, AWADDR=60, AWPROT=0, AWVALID=0, WDATA=945804911, WSTRB=8, WVALID=0, BREADY=0, ARADDR=48, ARPROT=0, ARVALID=1, RREADY=1, AWREADY=0, WREADY=1, BRESP=2, BVALID=0, ARREADY=1, ARPROT=0, RDATA=0, RRESP=2, RVALID=0
UVM_INFO driver.sv(37) @ 495: uvm_test_top.env.act.drv [DRV] AW=28/0/1 W=4004110301/110/1 AR=36/0/0 BREADY=1 RREADY=0
UVM_INFO /fetools/synopsys/installed_tools/vcs/vcs/Q-2020.03-SP2-8/etc/uvm-1.2/base/uvm_comparer.svh(351) @ 495: reporter [MISCMP] Miscompare for tr.BRESP: lhs = 'h0 : rhs = 'h2
UVM_INFO /fetools/synopsys/installed_tools/vcs/vcs/Q-2020.03-SP2-8/etc/uvm-1.2/base/uvm_comparer.svh(382) @ 495: reporter [MISCMP] 1 Miscompare(s) for object tr@2192 vs. tr@2154
UVM_INFO scoreboard.sv(242) @ 495: uvm_test_top.env.sc [SCOREBOARD] DUT: BRESP=2, RDATA=0, RRESP=2
REF: BRESP=0, RDATA=0, RRESP=2
_______________________________________________________________________________________________________________________
_
UVM_INFO sequences.sv(53) @ 495: uvm_test_top.env.act.sqr@@wr_rd [SEQ] AWADDR=16,AWPROT=0,AWVALID=1,WDATA=1419619327,WSTRB=1011,WVALID=1,ARADDR=0,ARPROT=0,ARVALID=0,RREADY=0
UVM_INFO sequences.sv(53) @ 495: uvm_test_top.env.act.sqr@@wr_rd [SEQ] AWADDR=16,AWPROT=0,AWVALID=1,WDATA=1419619327,WSTRB=1011,WVALID=1,ARADDR=0,ARPROT=0,ARVALID=1,RREADY=0
UVM_INFO monitor.sv(52) @ 505: uvm_test_top.env.act.mon [uvm_test_top.env.act.mon] rst=1, AWADDR=28, AWPROT=0, AWVALID=1, WDATA=4004110301, WSTRB=6, WVALID=1, BREADY=1, ARADDR=36, ARPROT=0, ARVALID=0, RREADY=0, AWREADY=0, WREADY=1, BRESP=2, BVALID=0, ARREADY=0, ARPROT=0, RDATA=0, RRESP=0, RVALID=1
UVM_INFO monitor.sv(52) @ 505: uvm_test_top.env.pass.mon [uvm_test_top.env.pass.mon] rst=1, AWADDR=28, AWPROT=0, AWVALID=1, WDATA=4004110301, WSTRB=6, WVALID=1, BREADY=1, ARADDR=36, ARPROT=0, ARVALID=0, RREADY=0, AWREADY=0, WREADY=1, BRESP=2, BVALID=0, ARREADY=0, ARPROT=0, RDATA=0, RRESP=0, RVALID=1
UVM_INFO driver.sv(37) @ 505: uvm_test_top.env.act.drv [DRV] AW=16/0/1 W=1419619327/1011/1 AR=0/0/1 BREADY=1 RREADY=0
UVM_INFO /fetools/synopsys/installed_tools/vcs/vcs/Q-2020.03-SP2-8/etc/uvm-1.2/base/uvm_comparer.svh(351) @ 505: reporter [MISCMP] Miscompare for tr.BRESP: lhs = 'h0 : rhs = 'h2
UVM_INFO /fetools/synopsys/installed_tools/vcs/vcs/Q-2020.03-SP2-8/etc/uvm-1.2/base/uvm_comparer.svh(382) @ 505: reporter [MISCMP] 1 Miscompare(s) for object tr@2224 vs. tr@2186
UVM_INFO scoreboard.sv(242) @ 505: uvm_test_top.env.sc [SCOREBOARD] DUT: BRESP=2, RDATA=0, RRESP=0
REF: BRESP=0, RDATA=0, RRESP=0
_______________________________________________________________________________________________________________________
_
UVM_INFO sequences.sv(53) @ 505: uvm_test_top.env.act.sqr@@aw_w [SEQ] AWADDR=4,AWPROT=0,AWVALID=0,WDATA=115447241,WSTRB=1111,WVALID=1,ARADDR=16,ARPROT=0,ARVALID=0,RREADY=1
UVM_INFO sequences.sv(53) @ 505: uvm_test_top.env.act.sqr@@aw_w [SEQ] AWADDR=4,AWPROT=0,AWVALID=0,WDATA=115447241,WSTRB=1111,WVALID=0,ARADDR=16,ARPROT=0,ARVALID=0,RREADY=1
UVM_INFO monitor.sv(52) @ 515: uvm_test_top.env.act.mon [uvm_test_top.env.act.mon] rst=1, AWADDR=16, AWPROT=0, AWVALID=1, WDATA=1419619327, WSTRB=11, WVALID=1, BREADY=1, ARADDR=0, ARPROT=0, ARVALID=1, RREADY=0, AWREADY=0, WREADY=0, BRESP=2, BVALID=0, ARREADY=0, ARPROT=0, RDATA=0, RRESP=0, RVALID=1
UVM_INFO monitor.sv(52) @ 515: uvm_test_top.env.pass.mon [uvm_test_top.env.pass.mon] rst=1, AWADDR=16, AWPROT=0, AWVALID=1, WDATA=1419619327, WSTRB=11, WVALID=1, BREADY=1, ARADDR=0, ARPROT=0, ARVALID=1, RREADY=0, AWREADY=0, WREADY=0, BRESP=2, BVALID=0, ARREADY=0, ARPROT=0, RDATA=0, RRESP=0, RVALID=1
UVM_INFO driver.sv(37) @ 515: uvm_test_top.env.act.drv [DRV] AW=4/0/0 W=115447241/1111/0 AR=16/0/0 BREADY=0 RREADY=1
UVM_INFO /fetools/synopsys/installed_tools/vcs/vcs/Q-2020.03-SP2-8/etc/uvm-1.2/base/uvm_comparer.svh(351) @ 515: reporter [MISCMP] Miscompare for tr.BRESP: lhs = 'h0 : rhs = 'h2
UVM_INFO /fetools/synopsys/installed_tools/vcs/vcs/Q-2020.03-SP2-8/etc/uvm-1.2/base/uvm_comparer.svh(382) @ 515: reporter [MISCMP] 1 Miscompare(s) for object tr@2256 vs. tr@2218
UVM_INFO scoreboard.sv(242) @ 515: uvm_test_top.env.sc [SCOREBOARD] DUT: BRESP=2, RDATA=0, RRESP=0
REF: BRESP=0, RDATA=0, RRESP=0
_______________________________________________________________________________________________________________________
_
UVM_INFO sequences.sv(53) @ 515: uvm_test_top.env.act.sqr@@w_aw [SEQ] AWADDR=32,AWPROT=0,AWVALID=0,WDATA=412236027,WSTRB=0,WVALID=0,ARADDR=8,ARPROT=0,ARVALID=1,RREADY=0
UVM_INFO sequences.sv(53) @ 515: uvm_test_top.env.act.sqr@@w_aw [SEQ] AWADDR=32,AWPROT=0,AWVALID=0,WDATA=412236027,WSTRB=0,WVALID=0,ARADDR=8,ARPROT=0,ARVALID=0,RREADY=0
UVM_INFO monitor.sv(52) @ 525: uvm_test_top.env.act.mon [uvm_test_top.env.act.mon] rst=1, AWADDR=4, AWPROT=0, AWVALID=0, WDATA=115447241, WSTRB=15, WVALID=0, BREADY=0, ARADDR=16, ARPROT=0, ARVALID=0, RREADY=1, AWREADY=0, WREADY=0, BRESP=0, BVALID=1, ARREADY=0, ARPROT=0, RDATA=0, RRESP=0, RVALID=1
UVM_INFO monitor.sv(52) @ 525: uvm_test_top.env.pass.mon [uvm_test_top.env.pass.mon] rst=1, AWADDR=4, AWPROT=0, AWVALID=0, WDATA=115447241, WSTRB=15, WVALID=0, BREADY=0, ARADDR=16, ARPROT=0, ARVALID=0, RREADY=1, AWREADY=0, WREADY=0, BRESP=0, BVALID=1, ARREADY=0, ARPROT=0, RDATA=0, RRESP=0, RVALID=1
UVM_INFO driver.sv(37) @ 525: uvm_test_top.env.act.drv [DRV] AW=32/0/0 W=412236027/0/0 AR=8/0/0 BREADY=1 RREADY=0
UVM_INFO scoreboard.sv(233) @ 525: uvm_test_top.env.sc [SCOREBOARD] DUT: BRESP=0, RDATA=0, RRESP=0
REF: BRESP=0, RDATA=0, RRESP=0


UVM_INFO sequences.sv(53) @ 525: uvm_test_top.env.act.sqr@@bp [SEQ] AWADDR=60,AWPROT=0,AWVALID=1,WDATA=2443245081,WSTRB=1,WVALID=1,ARADDR=32,ARPROT=0,ARVALID=0,RREADY=0
UVM_INFO sequences.sv(53) @ 525: uvm_test_top.env.act.sqr@@bp [SEQ] AWADDR=60,AWPROT=0,AWVALID=1,WDATA=2443245081,WSTRB=1,WVALID=1,ARADDR=32,ARPROT=0,ARVALID=0,RREADY=0
UVM_INFO monitor.sv(52) @ 535: uvm_test_top.env.act.mon [uvm_test_top.env.act.mon] rst=1, AWADDR=32, AWPROT=0, AWVALID=0, WDATA=412236027, WSTRB=0, WVALID=0, BREADY=1, ARADDR=8, ARPROT=0, ARVALID=0, RREADY=0, AWREADY=0, WREADY=0, BRESP=0, BVALID=1, ARREADY=0, ARPROT=0, RDATA=0, RRESP=0, RVALID=0
UVM_INFO monitor.sv(52) @ 535: uvm_test_top.env.pass.mon [uvm_test_top.env.pass.mon] rst=1, AWADDR=32, AWPROT=0, AWVALID=0, WDATA=412236027, WSTRB=0, WVALID=0, BREADY=1, ARADDR=8, ARPROT=0, ARVALID=0, RREADY=0, AWREADY=0, WREADY=0, BRESP=0, BVALID=1, ARREADY=0, ARPROT=0, RDATA=0, RRESP=0, RVALID=0
UVM_INFO driver.sv(37) @ 535: uvm_test_top.env.act.drv [DRV] AW=60/0/1 W=2443245081/1/1 AR=32/0/0 BREADY=0 RREADY=0
UVM_INFO scoreboard.sv(233) @ 535: uvm_test_top.env.sc [SCOREBOARD] DUT: BRESP=0, RDATA=0, RRESP=0
REF: BRESP=0, RDATA=0, RRESP=0


UVM_INFO sequences.sv(53) @ 535: uvm_test_top.env.act.sqr@@seq [SEQ] AWADDR=20,AWPROT=0,AWVALID=0,WDATA=847357987,WSTRB=101,WVALID=1,ARADDR=20,ARPROT=0,ARVALID=1,RREADY=0
UVM_INFO monitor.sv(52) @ 545: uvm_test_top.env.act.mon [uvm_test_top.env.act.mon] rst=1, AWADDR=60, AWPROT=0, AWVALID=1, WDATA=2443245081, WSTRB=1, WVALID=1, BREADY=0, ARADDR=32, ARPROT=0, ARVALID=0, RREADY=0, AWREADY=0, WREADY=0, BRESP=0, BVALID=0, ARREADY=1, ARPROT=0, RDATA=0, RRESP=0, RVALID=0
UVM_INFO monitor.sv(52) @ 545: uvm_test_top.env.pass.mon [uvm_test_top.env.pass.mon] rst=1, AWADDR=60, AWPROT=0, AWVALID=1, WDATA=2443245081, WSTRB=1, WVALID=1, BREADY=0, ARADDR=32, ARPROT=0, ARVALID=0, RREADY=0, AWREADY=0, WREADY=0, BRESP=0, BVALID=0, ARREADY=1, ARPROT=0, RDATA=0, RRESP=0, RVALID=0
UVM_INFO driver.sv(37) @ 545: uvm_test_top.env.act.drv [DRV] AW=20/0/0 W=847357987/101/1 AR=20/0/1 BREADY=0 RREADY=0
UVM_INFO scoreboard.sv(233) @ 545: uvm_test_top.env.sc [SCOREBOARD] DUT: BRESP=0, RDATA=0, RRESP=0
REF: BRESP=0, RDATA=0, RRESP=0


UVM_INFO sequences.sv(53) @ 545: uvm_test_top.env.act.sqr@@rd_a [SEQ] AWADDR=36,AWPROT=0,AWVALID=0,WDATA=968239726,WSTRB=11,WVALID=1,ARADDR=60,ARPROT=0,ARVALID=0,RREADY=0
UVM_INFO sequences.sv(53) @ 545: uvm_test_top.env.act.sqr@@rd_a [SEQ] AWADDR=36,AWPROT=0,AWVALID=0,WDATA=968239726,WSTRB=11,WVALID=0,ARADDR=60,ARPROT=0,ARVALID=1,RREADY=0
UVM_INFO monitor.sv(52) @ 555: uvm_test_top.env.act.mon [uvm_test_top.env.act.mon] rst=1, AWADDR=20, AWPROT=0, AWVALID=0, WDATA=847357987, WSTRB=5, WVALID=1, BREADY=0, ARADDR=20, ARPROT=0, ARVALID=1, RREADY=0, AWREADY=1, WREADY=1, BRESP=0, BVALID=0, ARREADY=1, ARPROT=0, RDATA=0, RRESP=0, RVALID=0
UVM_INFO monitor.sv(52) @ 555: uvm_test_top.env.pass.mon [uvm_test_top.env.pass.mon] rst=1, AWADDR=20, AWPROT=0, AWVALID=0, WDATA=847357987, WSTRB=5, WVALID=1, BREADY=0, ARADDR=20, ARPROT=0, ARVALID=1, RREADY=0, AWREADY=1, WREADY=1, BRESP=0, BVALID=0, ARREADY=1, ARPROT=0, RDATA=0, RRESP=0, RVALID=0
UVM_INFO driver.sv(37) @ 555: uvm_test_top.env.act.drv [DRV] AW=36/0/0 W=968239726/11/0 AR=60/0/1 BREADY=0 RREADY=0
UVM_INFO scoreboard.sv(233) @ 555: uvm_test_top.env.sc [SCOREBOARD] DUT: BRESP=0, RDATA=0, RRESP=0
REF: BRESP=0, RDATA=0, RRESP=0


UVM_INFO sequences.sv(53) @ 555: uvm_test_top.env.act.sqr@@rd_b [SEQ] AWADDR=36,AWPROT=0,AWVALID=1,WDATA=882754500,WSTRB=11,WVALID=1,ARADDR=4,ARPROT=0,ARVALID=1,RREADY=0
UVM_INFO sequences.sv(53) @ 555: uvm_test_top.env.act.sqr@@rd_b [SEQ] AWADDR=36,AWPROT=0,AWVALID=0,WDATA=882754500,WSTRB=11,WVALID=0,ARADDR=4,ARPROT=0,ARVALID=1,RREADY=0
UVM_INFO monitor.sv(52) @ 565: uvm_test_top.env.act.mon [uvm_test_top.env.act.mon] rst=1, AWADDR=36, AWPROT=0, AWVALID=0, WDATA=968239726, WSTRB=3, WVALID=0, BREADY=0, ARADDR=60, ARPROT=0, ARVALID=1, RREADY=0, AWREADY=1, WREADY=0, BRESP=0, BVALID=0, ARREADY=0, ARPROT=0, RDATA=0, RRESP=0, RVALID=1
UVM_INFO monitor.sv(52) @ 565: uvm_test_top.env.pass.mon [uvm_test_top.env.pass.mon] rst=1, AWADDR=36, AWPROT=0, AWVALID=0, WDATA=968239726, WSTRB=3, WVALID=0, BREADY=0, ARADDR=60, ARPROT=0, ARVALID=1, RREADY=0, AWREADY=1, WREADY=0, BRESP=0, BVALID=0, ARREADY=0, ARPROT=0, RDATA=0, RRESP=0, RVALID=1
UVM_INFO driver.sv(37) @ 565: uvm_test_top.env.act.drv [DRV] AW=36/0/0 W=882754500/11/0 AR=4/0/1 BREADY=0 RREADY=0
UVM_INFO scoreboard.sv(233) @ 565: uvm_test_top.env.sc [SCOREBOARD] DUT: BRESP=0, RDATA=0, RRESP=0
REF: BRESP=0, RDATA=0, RRESP=0


UVM_INFO sequences.sv(53) @ 565: uvm_test_top.env.act.sqr@@rd_c [SEQ] AWADDR=12,AWPROT=0,AWVALID=0,WDATA=2911966129,WSTRB=1011,WVALID=0,ARADDR=4,ARPROT=0,ARVALID=0,RREADY=1
UVM_INFO sequences.sv(53) @ 565: uvm_test_top.env.act.sqr@@rd_c [SEQ] AWADDR=12,AWPROT=0,AWVALID=0,WDATA=2911966129,WSTRB=1011,WVALID=0,ARADDR=4,ARPROT=0,ARVALID=1,RREADY=1
UVM_INFO monitor.sv(52) @ 575: uvm_test_top.env.act.mon [uvm_test_top.env.act.mon] rst=1, AWADDR=36, AWPROT=0, AWVALID=0, WDATA=882754500, WSTRB=3, WVALID=0, BREADY=0, ARADDR=4, ARPROT=0, ARVALID=1, RREADY=0, AWREADY=1, WREADY=0, BRESP=0, BVALID=0, ARREADY=0, ARPROT=0, RDATA=0, RRESP=0, RVALID=1
UVM_INFO monitor.sv(52) @ 575: uvm_test_top.env.pass.mon [uvm_test_top.env.pass.mon] rst=1, AWADDR=36, AWPROT=0, AWVALID=0, WDATA=882754500, WSTRB=3, WVALID=0, BREADY=0, ARADDR=4, ARPROT=0, ARVALID=1, RREADY=0, AWREADY=1, WREADY=0, BRESP=0, BVALID=0, ARREADY=0, ARPROT=0, RDATA=0, RRESP=0, RVALID=1
UVM_INFO driver.sv(37) @ 575: uvm_test_top.env.act.drv [DRV] AW=12/0/0 W=2911966129/1011/0 AR=4/0/1 BREADY=0 RREADY=1
UVM_INFO scoreboard.sv(233) @ 575: uvm_test_top.env.sc [SCOREBOARD] DUT: BRESP=0, RDATA=0, RRESP=0
REF: BRESP=0, RDATA=0, RRESP=0


UVM_INFO sequences.sv(53) @ 575: uvm_test_top.env.act.sqr@@wr_simul [SEQ] AWADDR=28,AWPROT=0,AWVALID=1,WDATA=4004110301,WSTRB=110,WVALID=1,ARADDR=16,ARPROT=0,ARVALID=0,RREADY=0
UVM_INFO sequences.sv(53) @ 575: uvm_test_top.env.act.sqr@@wr_simul [SEQ] AWADDR=28,AWPROT=0,AWVALID=1,WDATA=4004110301,WSTRB=110,WVALID=1,ARADDR=16,ARPROT=0,ARVALID=0,RREADY=0
UVM_INFO monitor.sv(52) @ 585: uvm_test_top.env.act.mon [uvm_test_top.env.act.mon] rst=1, AWADDR=12, AWPROT=0, AWVALID=0, WDATA=2911966129, WSTRB=11, WVALID=0, BREADY=0, ARADDR=4, ARPROT=0, ARVALID=1, RREADY=1, AWREADY=1, WREADY=0, BRESP=0, BVALID=0, ARREADY=0, ARPROT=0, RDATA=0, RRESP=0, RVALID=1
UVM_INFO monitor.sv(52) @ 585: uvm_test_top.env.pass.mon [uvm_test_top.env.pass.mon] rst=1, AWADDR=12, AWPROT=0, AWVALID=0, WDATA=2911966129, WSTRB=11, WVALID=0, BREADY=0, ARADDR=4, ARPROT=0, ARVALID=1, RREADY=1, AWREADY=1, WREADY=0, BRESP=0, BVALID=0, ARREADY=0, ARPROT=0, RDATA=0, RRESP=0, RVALID=1
UVM_INFO driver.sv(37) @ 585: uvm_test_top.env.act.drv [DRV] AW=28/0/1 W=4004110301/110/1 AR=16/0/0 BREADY=1 RREADY=0
UVM_INFO scoreboard.sv(233) @ 585: uvm_test_top.env.sc [SCOREBOARD] DUT: BRESP=0, RDATA=0, RRESP=0
REF: BRESP=0, RDATA=0, RRESP=0


UVM_INFO sequences.sv(53) @ 585: uvm_test_top.env.act.sqr@@wr_rd [SEQ] AWADDR=16,AWPROT=0,AWVALID=1,WDATA=1419619327,WSTRB=1011,WVALID=1,ARADDR=40,ARPROT=0,ARVALID=0,RREADY=0
UVM_INFO sequences.sv(53) @ 585: uvm_test_top.env.act.sqr@@wr_rd [SEQ] AWADDR=16,AWPROT=0,AWVALID=1,WDATA=1419619327,WSTRB=1011,WVALID=1,ARADDR=40,ARPROT=0,ARVALID=1,RREADY=0
UVM_INFO monitor.sv(52) @ 595: uvm_test_top.env.act.mon [uvm_test_top.env.act.mon] rst=1, AWADDR=28, AWPROT=0, AWVALID=1, WDATA=4004110301, WSTRB=6, WVALID=1, BREADY=1, ARADDR=16, ARPROT=0, ARVALID=0, RREADY=0, AWREADY=1, WREADY=0, BRESP=0, BVALID=0, ARREADY=0, ARPROT=0, RDATA=0, RRESP=0, RVALID=0
UVM_INFO monitor.sv(52) @ 595: uvm_test_top.env.pass.mon [uvm_test_top.env.pass.mon] rst=1, AWADDR=28, AWPROT=0, AWVALID=1, WDATA=4004110301, WSTRB=6, WVALID=1, BREADY=1, ARADDR=16, ARPROT=0, ARVALID=0, RREADY=0, AWREADY=1, WREADY=0, BRESP=0, BVALID=0, ARREADY=0, ARPROT=0, RDATA=0, RRESP=0, RVALID=0
UVM_INFO driver.sv(37) @ 595: uvm_test_top.env.act.drv [DRV] AW=16/0/1 W=1419619327/1011/1 AR=40/0/1 BREADY=0 RREADY=0
UVM_INFO scoreboard.sv(233) @ 595: uvm_test_top.env.sc [SCOREBOARD] DUT: BRESP=0, RDATA=0, RRESP=0
REF: BRESP=0, RDATA=0, RRESP=0


UVM_INFO sequences.sv(53) @ 595: uvm_test_top.env.act.sqr@@aw_w [SEQ] AWADDR=4,AWPROT=0,AWVALID=0,WDATA=2813198051,WSTRB=111,WVALID=1,ARADDR=28,ARPROT=0,ARVALID=1,RREADY=1
UVM_INFO sequences.sv(53) @ 595: uvm_test_top.env.act.sqr@@aw_w [SEQ] AWADDR=4,AWPROT=0,AWVALID=0,WDATA=2813198051,WSTRB=111,WVALID=0,ARADDR=28,ARPROT=0,ARVALID=0,RREADY=1
UVM_INFO monitor.sv(52) @ 605: uvm_test_top.env.act.mon [uvm_test_top.env.act.mon] rst=1, AWADDR=16, AWPROT=0, AWVALID=1, WDATA=1419619327, WSTRB=11, WVALID=1, BREADY=0, ARADDR=40, ARPROT=0, ARVALID=1, RREADY=0, AWREADY=0, WREADY=0, BRESP=0, BVALID=0, ARREADY=1, ARPROT=0, RDATA=0, RRESP=0, RVALID=0
UVM_INFO monitor.sv(52) @ 605: uvm_test_top.env.pass.mon [uvm_test_top.env.pass.mon] rst=1, AWADDR=16, AWPROT=0, AWVALID=1, WDATA=1419619327, WSTRB=11, WVALID=1, BREADY=0, ARADDR=40, ARPROT=0, ARVALID=1, RREADY=0, AWREADY=0, WREADY=0, BRESP=0, BVALID=0, ARREADY=1, ARPROT=0, RDATA=0, RRESP=0, RVALID=0
UVM_INFO driver.sv(37) @ 605: uvm_test_top.env.act.drv [DRV] AW=4/0/0 W=2813198051/111/0 AR=28/0/0 BREADY=1 RREADY=1
UVM_INFO scoreboard.sv(233) @ 605: uvm_test_top.env.sc [SCOREBOARD] DUT: BRESP=0, RDATA=0, RRESP=0
REF: BRESP=0, RDATA=0, RRESP=0


UVM_INFO sequences.sv(53) @ 605: uvm_test_top.env.act.sqr@@w_aw [SEQ] AWADDR=28,AWPROT=0,AWVALID=0,WDATA=643464935,WSTRB=100,WVALID=0,ARADDR=8,ARPROT=0,ARVALID=1,RREADY=0
UVM_INFO sequences.sv(53) @ 605: uvm_test_top.env.act.sqr@@w_aw [SEQ] AWADDR=28,AWPROT=0,AWVALID=0,WDATA=643464935,WSTRB=100,WVALID=0,ARADDR=8,ARPROT=0,ARVALID=0,RREADY=0
UVM_INFO monitor.sv(52) @ 615: uvm_test_top.env.act.mon [uvm_test_top.env.act.mon] rst=1, AWADDR=4, AWPROT=0, AWVALID=0, WDATA=2813198051, WSTRB=7, WVALID=0, BREADY=1, ARADDR=28, ARPROT=0, ARVALID=0, RREADY=1, AWREADY=0, WREADY=0, BRESP=0, BVALID=1, ARREADY=0, ARPROT=0, RDATA=0, RRESP=0, RVALID=1
UVM_INFO monitor.sv(52) @ 615: uvm_test_top.env.pass.mon [uvm_test_top.env.pass.mon] rst=1, AWADDR=4, AWPROT=0, AWVALID=0, WDATA=2813198051, WSTRB=7, WVALID=0, BREADY=1, ARADDR=28, ARPROT=0, ARVALID=0, RREADY=1, AWREADY=0, WREADY=0, BRESP=0, BVALID=1, ARREADY=0, ARPROT=0, RDATA=0, RRESP=0, RVALID=1
UVM_INFO driver.sv(37) @ 615: uvm_test_top.env.act.drv [DRV] AW=28/0/0 W=643464935/100/0 AR=8/0/0 BREADY=1 RREADY=0
UVM_INFO scoreboard.sv(233) @ 615: uvm_test_top.env.sc [SCOREBOARD] DUT: BRESP=0, RDATA=0, RRESP=0
REF: BRESP=0, RDATA=0, RRESP=0


UVM_INFO sequences.sv(53) @ 615: uvm_test_top.env.act.sqr@@bp [SEQ] AWADDR=60,AWPROT=0,AWVALID=1,WDATA=2443245081,WSTRB=1,WVALID=1,ARADDR=24,ARPROT=0,ARVALID=0,RREADY=1
UVM_INFO sequences.sv(53) @ 615: uvm_test_top.env.act.sqr@@bp [SEQ] AWADDR=60,AWPROT=0,AWVALID=1,WDATA=2443245081,WSTRB=1,WVALID=1,ARADDR=24,ARPROT=0,ARVALID=0,RREADY=0
UVM_INFO monitor.sv(52) @ 625: uvm_test_top.env.act.mon [uvm_test_top.env.act.mon] rst=1, AWADDR=28, AWPROT=0, AWVALID=0, WDATA=643464935, WSTRB=4, WVALID=0, BREADY=1, ARADDR=8, ARPROT=0, ARVALID=0, RREADY=0, AWREADY=0, WREADY=0, BRESP=0, BVALID=0, ARREADY=0, ARPROT=0, RDATA=0, RRESP=0, RVALID=0
UVM_INFO monitor.sv(52) @ 625: uvm_test_top.env.pass.mon [uvm_test_top.env.pass.mon] rst=1, AWADDR=28, AWPROT=0, AWVALID=0, WDATA=643464935, WSTRB=4, WVALID=0, BREADY=1, ARADDR=8, ARPROT=0, ARVALID=0, RREADY=0, AWREADY=0, WREADY=0, BRESP=0, BVALID=0, ARREADY=0, ARPROT=0, RDATA=0, RRESP=0, RVALID=0
UVM_INFO driver.sv(37) @ 625: uvm_test_top.env.act.drv [DRV] AW=60/0/1 W=2443245081/1/1 AR=24/0/0 BREADY=0 RREADY=0
UVM_INFO scoreboard.sv(233) @ 625: uvm_test_top.env.sc [SCOREBOARD] DUT: BRESP=0, RDATA=0, RRESP=0
REF: BRESP=0, RDATA=0, RRESP=0


UVM_INFO sequences.sv(53) @ 625: uvm_test_top.env.act.sqr@@seq [SEQ] AWADDR=0,AWPROT=0,AWVALID=0,WDATA=3219337363,WSTRB=1110,WVALID=1,ARADDR=20,ARPROT=0,ARVALID=1,RREADY=0
UVM_INFO monitor.sv(52) @ 635: uvm_test_top.env.act.mon [uvm_test_top.env.act.mon] rst=1, AWADDR=60, AWPROT=0, AWVALID=1, WDATA=2443245081, WSTRB=1, WVALID=1, BREADY=0, ARADDR=24, ARPROT=0, ARVALID=0, RREADY=0, AWREADY=1, WREADY=1, BRESP=0, BVALID=0, ARREADY=1, ARPROT=0, RDATA=0, RRESP=0, RVALID=0
UVM_INFO monitor.sv(52) @ 635: uvm_test_top.env.pass.mon [uvm_test_top.env.pass.mon] rst=1, AWADDR=60, AWPROT=0, AWVALID=1, WDATA=2443245081, WSTRB=1, WVALID=1, BREADY=0, ARADDR=24, ARPROT=0, ARVALID=0, RREADY=0, AWREADY=1, WREADY=1, BRESP=0, BVALID=0, ARREADY=1, ARPROT=0, RDATA=0, RRESP=0, RVALID=0
UVM_INFO driver.sv(37) @ 635: uvm_test_top.env.act.drv [DRV] AW=0/0/0 W=3219337363/1110/1 AR=20/0/1 BREADY=1 RREADY=0
UVM_INFO scoreboard.sv(233) @ 635: uvm_test_top.env.sc [SCOREBOARD] DUT: BRESP=0, RDATA=0, RRESP=0
REF: BRESP=0, RDATA=0, RRESP=0


UVM_INFO sequences.sv(53) @ 635: uvm_test_top.env.act.sqr@@rd_a [SEQ] AWADDR=16,AWPROT=0,AWVALID=0,WDATA=1465187281,WSTRB=1110,WVALID=1,ARADDR=60,ARPROT=0,ARVALID=1,RREADY=1
UVM_INFO sequences.sv(53) @ 635: uvm_test_top.env.act.sqr@@rd_a [SEQ] AWADDR=16,AWPROT=0,AWVALID=0,WDATA=1465187281,WSTRB=1110,WVALID=0,ARADDR=60,ARPROT=0,ARVALID=1,RREADY=1
UVM_INFO monitor.sv(52) @ 645: uvm_test_top.env.act.mon [uvm_test_top.env.act.mon] rst=1, AWADDR=0, AWPROT=0, AWVALID=0, WDATA=3219337363, WSTRB=14, WVALID=1, BREADY=1, ARADDR=20, ARPROT=0, ARVALID=1, RREADY=0, AWREADY=1, WREADY=1, BRESP=0, BVALID=0, ARREADY=1, ARPROT=0, RDATA=0, RRESP=0, RVALID=0
UVM_INFO monitor.sv(52) @ 645: uvm_test_top.env.pass.mon [uvm_test_top.env.pass.mon] rst=1, AWADDR=0, AWPROT=0, AWVALID=0, WDATA=3219337363, WSTRB=14, WVALID=1, BREADY=1, ARADDR=20, ARPROT=0, ARVALID=1, RREADY=0, AWREADY=1, WREADY=1, BRESP=0, BVALID=0, ARREADY=1, ARPROT=0, RDATA=0, RRESP=0, RVALID=0
UVM_INFO driver.sv(37) @ 645: uvm_test_top.env.act.drv [DRV] AW=16/0/0 W=1465187281/1110/0 AR=60/0/1 BREADY=0 RREADY=1
UVM_INFO scoreboard.sv(233) @ 645: uvm_test_top.env.sc [SCOREBOARD] DUT: BRESP=0, RDATA=0, RRESP=0
REF: BRESP=0, RDATA=0, RRESP=0


UVM_INFO sequences.sv(53) @ 645: uvm_test_top.env.act.sqr@@rd_b [SEQ] AWADDR=44,AWPROT=0,AWVALID=0,WDATA=2290576557,WSTRB=1001,WVALID=0,ARADDR=32,ARPROT=0,ARVALID=1,RREADY=0
UVM_INFO sequences.sv(53) @ 645: uvm_test_top.env.act.sqr@@rd_b [SEQ] AWADDR=44,AWPROT=0,AWVALID=0,WDATA=2290576557,WSTRB=1001,WVALID=0,ARADDR=32,ARPROT=0,ARVALID=1,RREADY=0
UVM_INFO monitor.sv(52) @ 655: uvm_test_top.env.act.mon [uvm_test_top.env.act.mon] rst=1, AWADDR=16, AWPROT=0, AWVALID=0, WDATA=1465187281, WSTRB=14, WVALID=0, BREADY=0, ARADDR=60, ARPROT=0, ARVALID=1, RREADY=1, AWREADY=0, WREADY=0, BRESP=0, BVALID=0, ARREADY=0, ARPROT=0, RDATA=0, RRESP=0, RVALID=1
UVM_INFO monitor.sv(52) @ 655: uvm_test_top.env.pass.mon [uvm_test_top.env.pass.mon] rst=1, AWADDR=16, AWPROT=0, AWVALID=0, WDATA=1465187281, WSTRB=14, WVALID=0, BREADY=0, ARADDR=60, ARPROT=0, ARVALID=1, RREADY=1, AWREADY=0, WREADY=0, BRESP=0, BVALID=0, ARREADY=0, ARPROT=0, RDATA=0, RRESP=0, RVALID=1
UVM_INFO driver.sv(37) @ 655: uvm_test_top.env.act.drv [DRV] AW=44/0/0 W=2290576557/1001/0 AR=32/0/1 BREADY=0 RREADY=0
UVM_INFO scoreboard.sv(233) @ 655: uvm_test_top.env.sc [SCOREBOARD] DUT: BRESP=0, RDATA=0, RRESP=0
REF: BRESP=0, RDATA=0, RRESP=0


UVM_INFO sequences.sv(53) @ 655: uvm_test_top.env.act.sqr@@rd_c [SEQ] AWADDR=28,AWPROT=0,AWVALID=0,WDATA=3118983461,WSTRB=111,WVALID=1,ARADDR=36,ARPROT=0,ARVALID=1,RREADY=1
UVM_INFO sequences.sv(53) @ 655: uvm_test_top.env.act.sqr@@rd_c [SEQ] AWADDR=28,AWPROT=0,AWVALID=0,WDATA=3118983461,WSTRB=111,WVALID=0,ARADDR=36,ARPROT=0,ARVALID=1,RREADY=1
UVM_INFO monitor.sv(52) @ 665: uvm_test_top.env.act.mon [uvm_test_top.env.act.mon] rst=1, AWADDR=44, AWPROT=0, AWVALID=0, WDATA=2290576557, WSTRB=9, WVALID=0, BREADY=0, ARADDR=32, ARPROT=0, ARVALID=1, RREADY=0, AWREADY=0, WREADY=0, BRESP=0, BVALID=1, ARREADY=0, ARPROT=0, RDATA=0, RRESP=0, RVALID=0
UVM_INFO monitor.sv(52) @ 665: uvm_test_top.env.pass.mon [uvm_test_top.env.pass.mon] rst=1, AWADDR=44, AWPROT=0, AWVALID=0, WDATA=2290576557, WSTRB=9, WVALID=0, BREADY=0, ARADDR=32, ARPROT=0, ARVALID=1, RREADY=0, AWREADY=0, WREADY=0, BRESP=0, BVALID=1, ARREADY=0, ARPROT=0, RDATA=0, RRESP=0, RVALID=0
UVM_INFO driver.sv(37) @ 665: uvm_test_top.env.act.drv [DRV] AW=28/0/0 W=3118983461/111/0 AR=36/0/1 BREADY=1 RREADY=1
UVM_INFO scoreboard.sv(233) @ 665: uvm_test_top.env.sc [SCOREBOARD] DUT: BRESP=0, RDATA=0, RRESP=0
REF: BRESP=0, RDATA=0, RRESP=0


UVM_INFO sequences.sv(53) @ 665: uvm_test_top.env.act.sqr@@wr_simul [SEQ] AWADDR=28,AWPROT=0,AWVALID=1,WDATA=4004110301,WSTRB=110,WVALID=1,ARADDR=16,ARPROT=0,ARVALID=1,RREADY=1
UVM_INFO sequences.sv(53) @ 665: uvm_test_top.env.act.sqr@@wr_simul [SEQ] AWADDR=28,AWPROT=0,AWVALID=1,WDATA=4004110301,WSTRB=110,WVALID=1,ARADDR=16,ARPROT=0,ARVALID=0,RREADY=1
UVM_INFO monitor.sv(52) @ 675: uvm_test_top.env.act.mon [uvm_test_top.env.act.mon] rst=1, AWADDR=28, AWPROT=0, AWVALID=0, WDATA=3118983461, WSTRB=7, WVALID=0, BREADY=1, ARADDR=36, ARPROT=0, ARVALID=1, RREADY=1, AWREADY=0, WREADY=0, BRESP=0, BVALID=1, ARREADY=1, ARPROT=0, RDATA=0, RRESP=0, RVALID=0
UVM_INFO monitor.sv(52) @ 675: uvm_test_top.env.pass.mon [uvm_test_top.env.pass.mon] rst=1, AWADDR=28, AWPROT=0, AWVALID=0, WDATA=3118983461, WSTRB=7, WVALID=0, BREADY=1, ARADDR=36, ARPROT=0, ARVALID=1, RREADY=1, AWREADY=0, WREADY=0, BRESP=0, BVALID=1, ARREADY=1, ARPROT=0, RDATA=0, RRESP=0, RVALID=0
UVM_INFO driver.sv(37) @ 675: uvm_test_top.env.act.drv [DRV] AW=28/0/1 W=4004110301/110/1 AR=16/0/0 BREADY=1 RREADY=1
UVM_INFO scoreboard.sv(233) @ 675: uvm_test_top.env.sc [SCOREBOARD] DUT: BRESP=0, RDATA=0, RRESP=0
REF: BRESP=0, RDATA=0, RRESP=0


UVM_INFO sequences.sv(53) @ 675: uvm_test_top.env.act.sqr@@wr_rd [SEQ] AWADDR=16,AWPROT=0,AWVALID=1,WDATA=1419619327,WSTRB=1011,WVALID=1,ARADDR=40,ARPROT=0,ARVALID=1,RREADY=0
UVM_INFO sequences.sv(53) @ 675: uvm_test_top.env.act.sqr@@wr_rd [SEQ] AWADDR=16,AWPROT=0,AWVALID=1,WDATA=1419619327,WSTRB=1011,WVALID=1,ARADDR=40,ARPROT=0,ARVALID=1,RREADY=0
UVM_INFO monitor.sv(52) @ 685: uvm_test_top.env.act.mon [uvm_test_top.env.act.mon] rst=1, AWADDR=28, AWPROT=0, AWVALID=1, WDATA=4004110301, WSTRB=6, WVALID=1, BREADY=1, ARADDR=16, ARPROT=0, ARVALID=0, RREADY=1, AWREADY=0, WREADY=0, BRESP=0, BVALID=0, ARREADY=0, ARPROT=0, RDATA=0, RRESP=0, RVALID=1
UVM_INFO monitor.sv(52) @ 685: uvm_test_top.env.pass.mon [uvm_test_top.env.pass.mon] rst=1, AWADDR=28, AWPROT=0, AWVALID=1, WDATA=4004110301, WSTRB=6, WVALID=1, BREADY=1, ARADDR=16, ARPROT=0, ARVALID=0, RREADY=1, AWREADY=0, WREADY=0, BRESP=0, BVALID=0, ARREADY=0, ARPROT=0, RDATA=0, RRESP=0, RVALID=1
UVM_INFO driver.sv(37) @ 685: uvm_test_top.env.act.drv [DRV] AW=16/0/1 W=1419619327/1011/1 AR=40/0/1 BREADY=0 RREADY=0
UVM_INFO scoreboard.sv(233) @ 685: uvm_test_top.env.sc [SCOREBOARD] DUT: BRESP=0, RDATA=0, RRESP=0
REF: BRESP=0, RDATA=0, RRESP=0


UVM_INFO sequences.sv(53) @ 685: uvm_test_top.env.act.sqr@@aw_w [SEQ] AWADDR=4,AWPROT=0,AWVALID=0,WDATA=25286382,WSTRB=1100,WVALID=0,ARADDR=36,ARPROT=0,ARVALID=0,RREADY=1
UVM_INFO sequences.sv(53) @ 685: uvm_test_top.env.act.sqr@@aw_w [SEQ] AWADDR=4,AWPROT=0,AWVALID=0,WDATA=25286382,WSTRB=1100,WVALID=0,ARADDR=36,ARPROT=0,ARVALID=0,RREADY=1
UVM_INFO monitor.sv(52) @ 695: uvm_test_top.env.act.mon [uvm_test_top.env.act.mon] rst=1, AWADDR=16, AWPROT=0, AWVALID=1, WDATA=1419619327, WSTRB=11, WVALID=1, BREADY=0, ARADDR=40, ARPROT=0, ARVALID=1, RREADY=0, AWREADY=1, WREADY=1, BRESP=0, BVALID=0, ARREADY=0, ARPROT=0, RDATA=0, RRESP=0, RVALID=0
UVM_INFO monitor.sv(52) @ 695: uvm_test_top.env.pass.mon [uvm_test_top.env.pass.mon] rst=1, AWADDR=16, AWPROT=0, AWVALID=1, WDATA=1419619327, WSTRB=11, WVALID=1, BREADY=0, ARADDR=40, ARPROT=0, ARVALID=1, RREADY=0, AWREADY=1, WREADY=1, BRESP=0, BVALID=0, ARREADY=0, ARPROT=0, RDATA=0, RRESP=0, RVALID=0
UVM_INFO driver.sv(37) @ 695: uvm_test_top.env.act.drv [DRV] AW=4/0/0 W=25286382/1100/0 AR=36/0/0 BREADY=0 RREADY=1
UVM_INFO scoreboard.sv(233) @ 695: uvm_test_top.env.sc [SCOREBOARD] DUT: BRESP=0, RDATA=0, RRESP=0
REF: BRESP=0, RDATA=0, RRESP=0


UVM_INFO sequences.sv(53) @ 695: uvm_test_top.env.act.sqr@@w_aw [SEQ] AWADDR=24,AWPROT=0,AWVALID=0,WDATA=1166764026,WSTRB=1,WVALID=1,ARADDR=60,ARPROT=0,ARVALID=0,RREADY=1
UVM_INFO sequences.sv(53) @ 695: uvm_test_top.env.act.sqr@@w_aw [SEQ] AWADDR=24,AWPROT=0,AWVALID=0,WDATA=1166764026,WSTRB=1,WVALID=0,ARADDR=60,ARPROT=0,ARVALID=0,RREADY=1
UVM_INFO monitor.sv(52) @ 705: uvm_test_top.env.act.mon [uvm_test_top.env.act.mon] rst=1, AWADDR=4, AWPROT=0, AWVALID=0, WDATA=25286382, WSTRB=12, WVALID=0, BREADY=0, ARADDR=36, ARPROT=0, ARVALID=0, RREADY=1, AWREADY=0, WREADY=0, BRESP=0, BVALID=0, ARREADY=1, ARPROT=0, RDATA=0, RRESP=0, RVALID=0
UVM_INFO monitor.sv(52) @ 705: uvm_test_top.env.pass.mon [uvm_test_top.env.pass.mon] rst=1, AWADDR=4, AWPROT=0, AWVALID=0, WDATA=25286382, WSTRB=12, WVALID=0, BREADY=0, ARADDR=36, ARPROT=0, ARVALID=0, RREADY=1, AWREADY=0, WREADY=0, BRESP=0, BVALID=0, ARREADY=1, ARPROT=0, RDATA=0, RRESP=0, RVALID=0
UVM_INFO driver.sv(37) @ 705: uvm_test_top.env.act.drv [DRV] AW=24/0/0 W=1166764026/1/0 AR=60/0/0 BREADY=0 RREADY=1
UVM_INFO scoreboard.sv(233) @ 705: uvm_test_top.env.sc [SCOREBOARD] DUT: BRESP=0, RDATA=0, RRESP=0
REF: BRESP=0, RDATA=0, RRESP=0


UVM_INFO sequences.sv(53) @ 705: uvm_test_top.env.act.sqr@@bp [SEQ] AWADDR=60,AWPROT=0,AWVALID=1,WDATA=2443245081,WSTRB=1,WVALID=1,ARADDR=56,ARPROT=0,ARVALID=0,RREADY=0
UVM_INFO sequences.sv(53) @ 705: uvm_test_top.env.act.sqr@@bp [SEQ] AWADDR=60,AWPROT=0,AWVALID=1,WDATA=2443245081,WSTRB=1,WVALID=1,ARADDR=56,ARPROT=0,ARVALID=0,RREADY=0
UVM_INFO monitor.sv(52) @ 715: uvm_test_top.env.act.mon [uvm_test_top.env.act.mon] rst=1, AWADDR=24, AWPROT=0, AWVALID=0, WDATA=1166764026, WSTRB=1, WVALID=0, BREADY=0, ARADDR=60, ARPROT=0, ARVALID=0, RREADY=1, AWREADY=0, WREADY=0, BRESP=0, BVALID=1, ARREADY=1, ARPROT=0, RDATA=0, RRESP=0, RVALID=0
UVM_INFO monitor.sv(52) @ 715: uvm_test_top.env.pass.mon [uvm_test_top.env.pass.mon] rst=1, AWADDR=24, AWPROT=0, AWVALID=0, WDATA=1166764026, WSTRB=1, WVALID=0, BREADY=0, ARADDR=60, ARPROT=0, ARVALID=0, RREADY=1, AWREADY=0, WREADY=0, BRESP=0, BVALID=1, ARREADY=1, ARPROT=0, RDATA=0, RRESP=0, RVALID=0
UVM_INFO driver.sv(37) @ 715: uvm_test_top.env.act.drv [DRV] AW=60/0/1 W=2443245081/1/1 AR=56/0/0 BREADY=0 RREADY=0
UVM_INFO scoreboard.sv(233) @ 715: uvm_test_top.env.sc [SCOREBOARD] DUT: BRESP=0, RDATA=0, RRESP=0
REF: BRESP=0, RDATA=0, RRESP=0


UVM_INFO sequences.sv(53) @ 715: uvm_test_top.env.act.sqr@@seq [SEQ] AWADDR=28,AWPROT=0,AWVALID=1,WDATA=3219337363,WSTRB=1110,WVALID=1,ARADDR=20,ARPROT=0,ARVALID=1,RREADY=1
UVM_INFO monitor.sv(52) @ 725: uvm_test_top.env.act.mon [uvm_test_top.env.act.mon] rst=1, AWADDR=60, AWPROT=0, AWVALID=1, WDATA=2443245081, WSTRB=1, WVALID=1, BREADY=0, ARADDR=56, ARPROT=0, ARVALID=0, RREADY=0, AWREADY=0, WREADY=0, BRESP=0, BVALID=1, ARREADY=1, ARPROT=0, RDATA=0, RRESP=0, RVALID=0
UVM_INFO monitor.sv(52) @ 725: uvm_test_top.env.pass.mon [uvm_test_top.env.pass.mon] rst=1, AWADDR=60, AWPROT=0, AWVALID=1, WDATA=2443245081, WSTRB=1, WVALID=1, BREADY=0, ARADDR=56, ARPROT=0, ARVALID=0, RREADY=0, AWREADY=0, WREADY=0, BRESP=0, BVALID=1, ARREADY=1, ARPROT=0, RDATA=0, RRESP=0, RVALID=0
UVM_INFO driver.sv(37) @ 725: uvm_test_top.env.act.drv [DRV] AW=28/0/1 W=3219337363/1110/1 AR=20/0/1 BREADY=0 RREADY=1
UVM_INFO scoreboard.sv(233) @ 725: uvm_test_top.env.sc [SCOREBOARD] DUT: BRESP=0, RDATA=0, RRESP=0
REF: BRESP=0, RDATA=0, RRESP=0


UVM_INFO sequences.sv(53) @ 725: uvm_test_top.env.act.sqr@@rd_a [SEQ] AWADDR=0,AWPROT=0,AWVALID=0,WDATA=3409305261,WSTRB=1100,WVALID=1,ARADDR=60,ARPROT=0,ARVALID=1,RREADY=1
UVM_INFO sequences.sv(53) @ 725: uvm_test_top.env.act.sqr@@rd_a [SEQ] AWADDR=0,AWPROT=0,AWVALID=0,WDATA=3409305261,WSTRB=1100,WVALID=0,ARADDR=60,ARPROT=0,ARVALID=1,RREADY=1
UVM_INFO monitor.sv(52) @ 735: uvm_test_top.env.act.mon [uvm_test_top.env.act.mon] rst=1, AWADDR=28, AWPROT=0, AWVALID=1, WDATA=3219337363, WSTRB=14, WVALID=1, BREADY=0, ARADDR=20, ARPROT=0, ARVALID=1, RREADY=1, AWREADY=0, WREADY=0, BRESP=0, BVALID=1, ARREADY=1, ARPROT=0, RDATA=0, RRESP=0, RVALID=0
UVM_INFO monitor.sv(52) @ 735: uvm_test_top.env.pass.mon [uvm_test_top.env.pass.mon] rst=1, AWADDR=28, AWPROT=0, AWVALID=1, WDATA=3219337363, WSTRB=14, WVALID=1, BREADY=0, ARADDR=20, ARPROT=0, ARVALID=1, RREADY=1, AWREADY=0, WREADY=0, BRESP=0, BVALID=1, ARREADY=1, ARPROT=0, RDATA=0, RRESP=0, RVALID=0
UVM_INFO driver.sv(37) @ 735: uvm_test_top.env.act.drv [DRV] AW=0/0/0 W=3409305261/1100/0 AR=60/0/1 BREADY=0 RREADY=1
UVM_INFO scoreboard.sv(233) @ 735: uvm_test_top.env.sc [SCOREBOARD] DUT: BRESP=0, RDATA=0, RRESP=0
REF: BRESP=0, RDATA=0, RRESP=0


UVM_INFO sequences.sv(53) @ 735: uvm_test_top.env.act.sqr@@rd_b [SEQ] AWADDR=60,AWPROT=0,AWVALID=1,WDATA=4033315521,WSTRB=110,WVALID=1,ARADDR=44,ARPROT=0,ARVALID=0,RREADY=1
UVM_INFO sequences.sv(53) @ 735: uvm_test_top.env.act.sqr@@rd_b [SEQ] AWADDR=60,AWPROT=0,AWVALID=0,WDATA=4033315521,WSTRB=110,WVALID=0,ARADDR=44,ARPROT=0,ARVALID=1,RREADY=1
UVM_INFO monitor.sv(52) @ 745: uvm_test_top.env.act.mon [uvm_test_top.env.act.mon] rst=1, AWADDR=0, AWPROT=0, AWVALID=0, WDATA=3409305261, WSTRB=12, WVALID=0, BREADY=0, ARADDR=60, ARPROT=0, ARVALID=1, RREADY=1, AWREADY=0, WREADY=0, BRESP=0, BVALID=1, ARREADY=0, ARPROT=0, RDATA=0, RRESP=0, RVALID=1
UVM_INFO monitor.sv(52) @ 745: uvm_test_top.env.pass.mon [uvm_test_top.env.pass.mon] rst=1, AWADDR=0, AWPROT=0, AWVALID=0, WDATA=3409305261, WSTRB=12, WVALID=0, BREADY=0, ARADDR=60, ARPROT=0, ARVALID=1, RREADY=1, AWREADY=0, WREADY=0, BRESP=0, BVALID=1, ARREADY=0, ARPROT=0, RDATA=0, RRESP=0, RVALID=1
UVM_INFO driver.sv(37) @ 745: uvm_test_top.env.act.drv [DRV] AW=60/0/0 W=4033315521/110/0 AR=44/0/1 BREADY=1 RREADY=1
UVM_INFO scoreboard.sv(233) @ 745: uvm_test_top.env.sc [SCOREBOARD] DUT: BRESP=0, RDATA=0, RRESP=0
REF: BRESP=0, RDATA=0, RRESP=0


UVM_INFO sequences.sv(53) @ 745: uvm_test_top.env.act.sqr@@rd_c [SEQ] AWADDR=12,AWPROT=0,AWVALID=0,WDATA=661936622,WSTRB=1011,WVALID=1,ARADDR=0,ARPROT=0,ARVALID=1,RREADY=0
UVM_INFO sequences.sv(53) @ 745: uvm_test_top.env.act.sqr@@rd_c [SEQ] AWADDR=12,AWPROT=0,AWVALID=0,WDATA=661936622,WSTRB=1011,WVALID=0,ARADDR=0,ARPROT=0,ARVALID=1,RREADY=0
UVM_INFO monitor.sv(52) @ 755: uvm_test_top.env.act.mon [uvm_test_top.env.act.mon] rst=1, AWADDR=60, AWPROT=0, AWVALID=0, WDATA=4033315521, WSTRB=6, WVALID=0, BREADY=1, ARADDR=44, ARPROT=0, ARVALID=1, RREADY=1, AWREADY=0, WREADY=0, BRESP=0, BVALID=1, ARREADY=0, ARPROT=0, RDATA=0, RRESP=0, RVALID=0
UVM_INFO monitor.sv(52) @ 755: uvm_test_top.env.pass.mon [uvm_test_top.env.pass.mon] rst=1, AWADDR=60, AWPROT=0, AWVALID=0, WDATA=4033315521, WSTRB=6, WVALID=0, BREADY=1, ARADDR=44, ARPROT=0, ARVALID=1, RREADY=1, AWREADY=0, WREADY=0, BRESP=0, BVALID=1, ARREADY=0, ARPROT=0, RDATA=0, RRESP=0, RVALID=0
UVM_INFO driver.sv(37) @ 755: uvm_test_top.env.act.drv [DRV] AW=12/0/0 W=661936622/1011/0 AR=0/0/1 BREADY=0 RREADY=0
UVM_INFO scoreboard.sv(233) @ 755: uvm_test_top.env.sc [SCOREBOARD] DUT: BRESP=0, RDATA=0, RRESP=0
REF: BRESP=0, RDATA=0, RRESP=0


UVM_INFO sequences.sv(53) @ 755: uvm_test_top.env.act.sqr@@wr_simul [SEQ] AWADDR=28,AWPROT=0,AWVALID=1,WDATA=4004110301,WSTRB=110,WVALID=1,ARADDR=40,ARPROT=0,ARVALID=0,RREADY=1
UVM_INFO sequences.sv(53) @ 755: uvm_test_top.env.act.sqr@@wr_simul [SEQ] AWADDR=28,AWPROT=0,AWVALID=1,WDATA=4004110301,WSTRB=110,WVALID=1,ARADDR=40,ARPROT=0,ARVALID=0,RREADY=1
UVM_INFO monitor.sv(52) @ 765: uvm_test_top.env.act.mon [uvm_test_top.env.act.mon] rst=1, AWADDR=12, AWPROT=0, AWVALID=0, WDATA=661936622, WSTRB=11, WVALID=0, BREADY=0, ARADDR=0, ARPROT=0, ARVALID=1, RREADY=0, AWREADY=0, WREADY=0, BRESP=0, BVALID=0, ARREADY=1, ARPROT=0, RDATA=0, RRESP=0, RVALID=0
UVM_INFO monitor.sv(52) @ 765: uvm_test_top.env.pass.mon [uvm_test_top.env.pass.mon] rst=1, AWADDR=12, AWPROT=0, AWVALID=0, WDATA=661936622, WSTRB=11, WVALID=0, BREADY=0, ARADDR=0, ARPROT=0, ARVALID=1, RREADY=0, AWREADY=0, WREADY=0, BRESP=0, BVALID=0, ARREADY=1, ARPROT=0, RDATA=0, RRESP=0, RVALID=0
UVM_INFO driver.sv(37) @ 765: uvm_test_top.env.act.drv [DRV] AW=28/0/1 W=4004110301/110/1 AR=40/0/0 BREADY=1 RREADY=1
UVM_INFO scoreboard.sv(233) @ 765: uvm_test_top.env.sc [SCOREBOARD] DUT: BRESP=0, RDATA=0, RRESP=0
REF: BRESP=0, RDATA=0, RRESP=0


UVM_INFO sequences.sv(53) @ 765: uvm_test_top.env.act.sqr@@wr_rd [SEQ] AWADDR=16,AWPROT=0,AWVALID=1,WDATA=1419619327,WSTRB=1011,WVALID=1,ARADDR=20,ARPROT=0,ARVALID=1,RREADY=1
UVM_INFO sequences.sv(53) @ 765: uvm_test_top.env.act.sqr@@wr_rd [SEQ] AWADDR=16,AWPROT=0,AWVALID=1,WDATA=1419619327,WSTRB=1011,WVALID=1,ARADDR=20,ARPROT=0,ARVALID=1,RREADY=1
